2020-09-28 11:37:40|Info|[M][39.144.5.151:24947]:01 03 14 00 04 00 16 00 16 00 00 D8 8B 00 00 00 00 04 F6 00 00 00 00 4C 2B
2020-09-28 11:37:40|Info|[M->1][39.144.5.151:24947]:01 03 14 00 04 00 16 00 16 00 00 D8 8B 00 00 00 00 04 F6 00 00 00 00 4C 2B
2020-09-28 11:37:40|Warn|[10.30.2.77:58890] client no longer connected
2020-09-28 11:37:40|Info|Get_XAGY_WII_WaterInjectingInstrument:定3851-1井:1009044:SLS-40:1
2020-09-28 11:37:40|Info|One客户端已连接,IP:10.30.2.77:58893
2020-09-28 11:37:40|Info|[1->M]----[408-39.144.5.151:24947]-01 03 00 58 00 0A 44 1E ----
2020-09-28 11:37:40|Info|[M][39.144.5.151:24947]:01 03 14 00 04 00 2A 00 2A 00 02 AD 5A 00 00 00 00 00 00 00 00 00 00 8E A9
2020-09-28 11:37:40|Info|[M->1][39.144.5.151:24947]:01 03 14 00 04 00 2A 00 2A 00 02 AD 5A 00 00 00 00 00 00 00 00 00 00 8E A9
2020-09-28 11:37:40|Warn|[10.30.2.77:58893] client no longer connected
2020-09-28 11:37:40|Info|Get_XAGY_WII_WaterInjectingInstrument:定3844-7井:1009045:SLS-40:1
2020-09-28 11:37:40|Info|One客户端已连接,IP:10.30.2.77:58895
2020-09-28 11:37:41|Info|[1->M]----[408-39.144.5.151:24947]-01 03 00 62 00 0A 64 13 ----
2020-09-28 11:37:42|Info|[M][39.144.5.151:24947]:01 03 14 00 04 00 2A 00 2A 00 01 2E 11 00 00 00 00 05 00 00 00 00 00 FD A0
2020-09-28 11:37:42|Info|[M->1][39.144.5.151:24947]:01 03 14 00 04 00 2A 00 2A 00 01 2E 11 00 00 00 00 05 00 00 00 00 00 FD A0
2020-09-28 11:37:42|Warn|[10.30.2.77:58895] client no longer connected
2020-09-28 11:37:42|Info|Get_XAGY_WII_WaterInjectingInstrument:定3852-1井:1009046:SLS-40:1
2020-09-28 11:37:42|Info|One客户端已连接,IP:10.30.2.77:58897
2020-09-28 11:37:42|Info|[1->M]----[408-39.144.5.151:24947]-01 03 00 6C 00 0A 05 D0 ----
2020-09-28 11:37:43|Info|[M][39.144.5.151:24947]:01 03 14 00 04 00 19 00 24 00 01 65 2B 00 00 00 00 04 C4 00 00 00 00 5D 67
2020-09-28 11:37:43|Info|[M->1][39.144.5.151:24947]:01 03 14 00 04 00 19 00 24 00 01 65 2B 00 00 00 00 04 C4 00 00 00 00 5D 67
2020-09-28 11:37:43|Warn|[10.30.2.77:58897] client no longer connected
2020-09-28 11:37:43|Info|Get_XAGY_WII_WaterInjectingInstrument:定3843-2井:1009047:SLS-40:1
2020-09-28 11:37:43|Info|One客户端已连接,IP:10.30.2.77:58900
2020-09-28 11:37:43|Info|[1->M]----[408-39.144.5.151:24947]-01 03 00 76 00 0A 24 17 ----
2020-09-28 11:37:44|Info|[M][39.144.5.151:24947]:01 03 14 00 04 00 2A 00 2A 00 02 65 09 00 00 00 00 04 E2 00 00 00 00 9B E0
2020-09-28 11:37:44|Info|[M->1][39.144.5.151:24947]:01 03 14 00 04 00 2A 00 2A 00 02 65 09 00 00 00 00 04 E2 00 00 00 00 9B E0
2020-09-28 11:37:44|Warn|[10.30.2.77:58900] client no longer connected
2020-09-28 11:37:44|Info|Get_XAGY_WII_WaterInjectingInstrument:定3841-2井:1009048:SLS-40:1
2020-09-28 11:37:44|Info|One客户端已连接,IP:10.30.2.77:58902
2020-09-28 11:37:44|Info|[1->M]----[408-39.144.5.151:24947]-01 03 00 80 00 0A C4 25 ----
2020-09-28 11:37:45|Info|[M][39.144.5.151:24947]:01 03 14 00 04 00 2A 00 37 00 02 D3 B3 00 00 00 00 04 7E 00 00 00 00 AB D9
2020-09-28 11:37:45|Info|[M->1][39.144.5.151:24947]:01 03 14 00 04 00 2A 00 37 00 02 D3 B3 00 00 00 00 04 7E 00 00 00 00 AB D9
2020-09-28 11:37:45|Warn|[10.30.2.77:58902] client no longer connected
2020-09-28 11:37:45|Info|Get_XAGY_WII_WaterInjectingInstrument:定3841-5井:1009049:SLS-40:1
2020-09-28 11:37:45|Info|One客户端已连接,IP:10.30.2.77:58904
2020-09-28 11:37:45|Info|[1->M]----[408-39.144.5.151:24947]-01 03 00 8A 00 0A E4 27 ----
2020-09-28 11:37:46|Info|[M][39.144.5.151:24947]:01 03 14 00 04 00 2A 00 2A 00 01 19 4B 00 00 00 00 04 E2 00 00 00 00 91 35
2020-09-28 11:37:46|Info|[M->1][39.144.5.151:24947]:01 03 14 00 04 00 2A 00 2A 00 01 19 4B 00 00 00 00 04 E2 00 00 00 00 91 35
2020-09-28 11:37:47|Warn|[10.30.2.77:58904] client no longer connected
2020-09-28 11:37:47|Info|Get_XAGY_WII_WaterInjectingInstrument:定3841-3井:1009050:SLS-40:1
2020-09-28 11:37:47|Info|One客户端已连接,IP:10.30.2.77:58907
2020-09-28 11:37:47|Info|[1->M]----[408-39.144.5.151:24947]-01 03 00 94 00 0A 84 21 ----
2020-09-28 11:37:48|Info|[M][39.144.5.151:24947]:01 03 14 00 04 00 42 00 4A 00 04 61 9D 00 00 00 00 04 6A 00 00 00 00 A4 30
2020-09-28 11:37:48|Info|[M->1][39.144.5.151:24947]:01 03 14 00 04 00 42 00 4A 00 04 61 9D 00 00 00 00 04 6A 00 00 00 00 A4 30
2020-09-28 11:37:48|Warn|[10.30.2.77:58907] client no longer connected
2020-09-28 11:37:48|Info|Get_XAGY_WTPM_TrunkPressure:定38017配水间:100701:SLS-40:1
2020-09-28 11:37:48|Info|One客户端已连接,IP:10.30.2.77:58908
2020-09-28 11:37:51|Error|one client excetion 远程主机强迫关闭了一个现有的连接。,    at System.Net.Sockets.Socket.Receive(Byte[] buffer, Int32 offset, Int32 size, SocketFlags socketFlags)
   at System.Net.Sockets.Socket.Receive(Byte[] buffer, SocketFlags socketFlags)
   at YCIOT.ModbusPoll.RtuOverTcp.Bridge.TcpBridge.IsClientConnected(TcpClient client)
   at YCIOT.ModbusPoll.RtuOverTcp.Bridge.TcpBridge.OneDataReceiver(OneMetadata md)
2020-09-28 11:37:51|Info|Get_XAGY_WTPM_TrunkPressure:定44150配水间:100702:SLS-40:1
2020-09-28 11:37:51|Info|One客户端已连接,IP:10.30.2.77:58911
2020-09-28 11:37:51|Info|[1->M]----[402-39.144.5.169:33189]-01 04 00 0A 00 01 11 C8 ----
2020-09-28 11:37:53|Info|[M][39.144.5.169:33189]:01 04 02 00 00 B9 30
2020-09-28 11:37:53|Info|[M->1][39.144.5.169:33189]:01 04 02 00 00 B9 30
2020-09-28 11:37:53|Warn|[10.30.2.77:58911] client no longer connected
2020-09-28 11:37:53|Info|Get_XAGY_WTPM_TrunkPressure:定44125配水间A:100703:SLS-40:1
2020-09-28 11:37:53|Info|One客户端已连接,IP:10.30.2.77:58914
2020-09-28 11:37:55|Info|收到连接[4][4][405]心跳包
2020-09-28 11:37:56|Error|one client excetion 远程主机强迫关闭了一个现有的连接。,    at System.Net.Sockets.Socket.Receive(Byte[] buffer, Int32 offset, Int32 size, SocketFlags socketFlags)
   at System.Net.Sockets.Socket.Receive(Byte[] buffer, SocketFlags socketFlags)
   at YCIOT.ModbusPoll.RtuOverTcp.Bridge.TcpBridge.IsClientConnected(TcpClient client)
   at YCIOT.ModbusPoll.RtuOverTcp.Bridge.TcpBridge.OneDataReceiver(OneMetadata md)
2020-09-28 11:37:56|Info|Get_XAGY_WTPM_TrunkPressure:定44125配水间B:100704:SLS-40:1
2020-09-28 11:37:56|Info|One客户端已连接,IP:10.30.2.77:58917
2020-09-28 11:37:59|Error|one client excetion 远程主机强迫关闭了一个现有的连接。,    at System.Net.Sockets.Socket.Receive(Byte[] buffer, Int32 offset, Int32 size, SocketFlags socketFlags)
   at System.Net.Sockets.Socket.Receive(Byte[] buffer, SocketFlags socketFlags)
   at YCIOT.ModbusPoll.RtuOverTcp.Bridge.TcpBridge.IsClientConnected(TcpClient client)
   at YCIOT.ModbusPoll.RtuOverTcp.Bridge.TcpBridge.OneDataReceiver(OneMetadata md)
2020-09-28 11:37:59|Info|Get_XAGY_WII_WaterInjectingInstrument:定3844-3井:1009001:SLS-40:1
2020-09-28 11:37:59|Info|One客户端已连接,IP:10.30.2.77:58920
2020-09-28 11:38:02|Error|one client excetion 远程主机强迫关闭了一个现有的连接。,    at System.Net.Sockets.Socket.Receive(Byte[] buffer, Int32 offset, Int32 size, SocketFlags socketFlags)
   at System.Net.Sockets.Socket.Receive(Byte[] buffer, SocketFlags socketFlags)
   at YCIOT.ModbusPoll.RtuOverTcp.Bridge.TcpBridge.IsClientConnected(TcpClient client)
   at YCIOT.ModbusPoll.RtuOverTcp.Bridge.TcpBridge.OneDataReceiver(OneMetadata md)
2020-09-28 11:38:02|Info|Get_XAGY_WTPM_TrunkPressure:定44088配水间:100705:SLS-40:1
2020-09-28 11:38:02|Info|One客户端已连接,IP:10.30.2.77:58944
2020-09-28 11:38:02|Info|[1->M]----[405-117.132.198.60:49014]-01 04 00 0A 00 01 11 C8 ----
2020-09-28 11:38:03|Info|[M][117.132.198.60:49014]:01 04 02 06 F2 3B 15
2020-09-28 11:38:03|Info|[M->1][117.132.198.60:49014]:01 04 02 06 F2 3B 15
2020-09-28 11:38:04|Warn|[10.30.2.77:58944] client no longer connected
2020-09-28 11:38:04|Info|Get_XAGY_WII_WaterInjectingInstrument:定38019-2井:1009002:SLS-40:1
2020-09-28 11:38:04|Info|One客户端已连接,IP:10.30.2.77:58963
2020-09-28 11:38:07|Error|one client excetion 远程主机强迫关闭了一个现有的连接。,    at System.Net.Sockets.Socket.Receive(Byte[] buffer, Int32 offset, Int32 size, SocketFlags socketFlags)
   at System.Net.Sockets.Socket.Receive(Byte[] buffer, SocketFlags socketFlags)
   at YCIOT.ModbusPoll.RtuOverTcp.Bridge.TcpBridge.IsClientConnected(TcpClient client)
   at YCIOT.ModbusPoll.RtuOverTcp.Bridge.TcpBridge.OneDataReceiver(OneMetadata md)
2020-09-28 11:38:07|Info|Get_XAGY_WTPM_TrunkPressure:定44137配水间:100706:SLS-40:1
2020-09-28 11:38:07|Info|One客户端已连接,IP:10.30.2.77:58989
2020-09-28 11:38:08|Info|收到连接[4][4][407]心跳包
2020-09-28 11:38:10|Error|one client excetion 远程主机强迫关闭了一个现有的连接。,    at System.Net.Sockets.Socket.Receive(Byte[] buffer, Int32 offset, Int32 size, SocketFlags socketFlags)
   at System.Net.Sockets.Socket.Receive(Byte[] buffer, SocketFlags socketFlags)
   at YCIOT.ModbusPoll.RtuOverTcp.Bridge.TcpBridge.IsClientConnected(TcpClient client)
   at YCIOT.ModbusPoll.RtuOverTcp.Bridge.TcpBridge.OneDataReceiver(OneMetadata md)
2020-09-28 11:38:10|Info|Get_XAGY_WII_WaterInjectingInstrument:定3853A-7井:1009003:SLS-40:1
2020-09-28 11:38:10|Info|One客户端已连接,IP:10.30.2.77:58994
2020-09-28 11:38:13|Error|one client excetion 远程主机强迫关闭了一个现有的连接。,    at System.Net.Sockets.Socket.Receive(Byte[] buffer, Int32 offset, Int32 size, SocketFlags socketFlags)
   at System.Net.Sockets.Socket.Receive(Byte[] buffer, SocketFlags socketFlags)
   at YCIOT.ModbusPoll.RtuOverTcp.Bridge.TcpBridge.IsClientConnected(TcpClient client)
   at YCIOT.ModbusPoll.RtuOverTcp.Bridge.TcpBridge.OneDataReceiver(OneMetadata md)
2020-09-28 11:38:13|Info|Get_XAGY_WTPM_TrunkPressure:定3800配水间A:100707:SLS-40:1
2020-09-28 11:38:13|Info|One客户端已连接,IP:10.30.2.77:59010
2020-09-28 11:38:13|Info|[1->M]----[407-221.178.124.151:32426]-01 04 00 0A 00 01 11 C8 ----
2020-09-28 11:38:15|Info|[M][221.178.124.151:32426]:01 04 02 05 14 BA 6F
2020-09-28 11:38:15|Info|[M->1][221.178.124.151:32426]:01 04 02 05 14 BA 6F
2020-09-28 11:38:15|Warn|[10.30.2.77:59010] client no longer connected
2020-09-28 11:38:15|Info|Get_XAGY_WII_WaterInjectingInstrument:定3853A-6井:1009004:SLS-40:1
2020-09-28 11:38:15|Info|One客户端已连接,IP:10.30.2.77:59013
2020-09-28 11:38:18|Error|one client excetion 远程主机强迫关闭了一个现有的连接。,    at System.Net.Sockets.Socket.Receive(Byte[] buffer, Int32 offset, Int32 size, SocketFlags socketFlags)
   at System.Net.Sockets.Socket.Receive(Byte[] buffer, SocketFlags socketFlags)
   at YCIOT.ModbusPoll.RtuOverTcp.Bridge.TcpBridge.IsClientConnected(TcpClient client)
   at YCIOT.ModbusPoll.RtuOverTcp.Bridge.TcpBridge.OneDataReceiver(OneMetadata md)
2020-09-28 11:38:18|Info|Get_XAGY_WTPM_TrunkPressure:定3800配水间B:100708:SLS-40:1
2020-09-28 11:38:18|Info|One客户端已连接,IP:10.30.2.77:59018
2020-09-28 11:38:18|Info|[1->M]----[408-39.144.5.151:24947]-01 04 00 0A 00 01 11 C8 ----
2020-09-28 11:38:18|Info|收到连接[4][4][408]心跳包
2020-09-28 11:38:19|Info|[M][39.144.5.151:24947]:01 04 02 05 07 FB A2
2020-09-28 11:38:19|Info|[M->1][39.144.5.151:24947]:01 04 02 05 07 FB A2
2020-09-28 11:38:19|Warn|[10.30.2.77:59018] client no longer connected
2020-09-28 11:38:19|Info|Get_XAGY_WII_WaterInjectingInstrument:定3853A-1井:1009005:SLS-40:1
2020-09-28 11:38:19|Info|One客户端已连接,IP:10.30.2.77:59019
2020-09-28 11:38:22|Error|one client excetion 远程主机强迫关闭了一个现有的连接。,    at System.Net.Sockets.Socket.Receive(Byte[] buffer, Int32 offset, Int32 size, SocketFlags socketFlags)
   at System.Net.Sockets.Socket.Receive(Byte[] buffer, SocketFlags socketFlags)
   at YCIOT.ModbusPoll.RtuOverTcp.Bridge.TcpBridge.IsClientConnected(TcpClient client)
   at YCIOT.ModbusPoll.RtuOverTcp.Bridge.TcpBridge.OneDataReceiver(OneMetadata md)
2020-09-28 11:38:22|Info|Get_XAGY_WII_WaterInjectingInstrument:定4415A-1井:1009006:SLS-40:1
2020-09-28 11:38:22|Info|One客户端已连接,IP:10.30.2.77:59023
2020-09-28 11:38:22|Info|[1->M]----[402-39.144.5.169:33189]-01 03 00 4E 00 0A A5 DA ----
2020-09-28 11:38:23|Info|收到连接[4][4][402]心跳包
2020-09-28 11:38:24|Info|[M][39.144.5.169:33189]:01 03 14 00 04 00 21 00 38 00 0B D4 08 00 00 00 00 00 00 00 00 00 00 21 85
2020-09-28 11:38:24|Info|[M->1][39.144.5.169:33189]:01 03 14 00 04 00 21 00 38 00 0B D4 08 00 00 00 00 00 00 00 00 00 00 21 85
2020-09-28 11:38:24|Warn|[10.30.2.77:59023] client no longer connected
2020-09-28 11:38:24|Info|Get_XAGY_WII_WaterInjectingInstrument:定44150-1井:1009007:SLS-40:1
2020-09-28 11:38:24|Info|One客户端已连接,IP:10.30.2.77:59027
2020-09-28 11:38:24|Info|[1->M]----[402-39.144.5.169:33189]-01 03 00 58 00 0A 44 1E ----
2020-09-28 11:38:26|Info|[M][39.144.5.169:33189]:01 03 14 00 04 00 21 00 1C 00 0E A3 EF 00 00 00 00 06 2C 00 00 00 00 61 38
2020-09-28 11:38:26|Info|[M->1][39.144.5.169:33189]:01 03 14 00 04 00 21 00 1C 00 0E A3 EF 00 00 00 00 06 2C 00 00 00 00 61 38
2020-09-28 11:38:26|Warn|[10.30.2.77:59027] client no longer connected
2020-09-28 11:38:26|Info|Get_XAGY_WII_WaterInjectingInstrument:定44150-8井:1009008:SLS-40:1
2020-09-28 11:38:26|Info|One客户端已连接,IP:10.30.2.77:59030
2020-09-28 11:38:26|Info|[1->M]----[402-39.144.5.169:33189]-01 03 00 62 00 0A 64 13 ----
2020-09-28 11:38:27|Info|[M][39.144.5.169:33189]:01 03 14 00 04 00 21 00 00 00 0E C1 59 00 00 00 00 06 40 00 00 00 00 DC 35
2020-09-28 11:38:27|Info|[M->1][39.144.5.169:33189]:01 03 14 00 04 00 21 00 00 00 0E C1 59 00 00 00 00 06 40 00 00 00 00 DC 35
2020-09-28 11:38:27|Warn|[10.30.2.77:59030] client no longer connected
2020-09-28 11:38:27|Info|Get_XAGY_WII_WaterInjectingInstrument:定44150-7井:1009009:SLS-40:1
2020-09-28 11:38:27|Info|One客户端已连接,IP:10.30.2.77:59032
2020-09-28 11:38:27|Info|[1->M]----[402-39.144.5.169:33189]-01 03 00 6C 00 0A 05 D0 ----
2020-09-28 11:38:29|Info|[M][39.144.5.169:33189]:01 03 14 00 04 00 21 00 20 00 09 CB E4 00 00 00 00 04 CE 00 00 00 00 EB E1
2020-09-28 11:38:29|Info|[M->1][39.144.5.169:33189]:01 03 14 00 04 00 21 00 20 00 09 CB E4 00 00 00 00 04 CE 00 00 00 00 EB E1
2020-09-28 11:38:29|Warn|[10.30.2.77:59032] client no longer connected
2020-09-28 11:38:29|Info|Get_XAGY_WII_WaterInjectingInstrument:定3857-4井:1009010:SLS-40:1
2020-09-28 11:38:29|Info|One客户端已连接,IP:10.30.2.77:59035
2020-09-28 11:38:29|Info|[1->M]----[402-39.144.5.169:33189]-01 03 00 76 00 0A 24 17 ----
2020-09-28 11:38:31|Info|[M][39.144.5.169:33189]:01 03 14 00 04 00 15 00 14 00 05 CE C7 00 00 00 00 02 C6 00 00 00 00 D1 DB
2020-09-28 11:38:31|Info|[M->1][39.144.5.169:33189]:01 03 14 00 04 00 15 00 14 00 05 CE C7 00 00 00 00 02 C6 00 00 00 00 D1 DB
2020-09-28 11:38:31|Warn|[10.30.2.77:59035] client no longer connected
2020-09-28 11:38:31|Info|Get_XAGY_WII_WaterInjectingInstrument:定3861-8井:1009011:SLS-40:1
2020-09-28 11:38:31|Info|One客户端已连接,IP:10.30.2.77:59036
2020-09-28 11:38:31|Info|[1->M]----[402-39.144.5.169:33189]-01 03 00 80 00 0A C4 25 ----
2020-09-28 11:38:33|Info|[M][39.144.5.169:33189]:01 03 14 00 04 00 29 00 50 00 0B F3 1A 00 00 00 00 06 4A 00 00 00 00 7C CD
2020-09-28 11:38:33|Info|[M->1][39.144.5.169:33189]:01 03 14 00 04 00 29 00 50 00 0B F3 1A 00 00 00 00 06 4A 00 00 00 00 7C CD
2020-09-28 11:38:33|Warn|[10.30.2.77:59036] client no longer connected
2020-09-28 11:38:33|Info|Get_XAGY_WII_WaterInjectingInstrument:定44109井:1009012:SLS-40:1
2020-09-28 11:38:33|Info|One客户端已连接,IP:10.30.2.77:59040
2020-09-28 11:38:33|Info|[1->M]----[402-39.144.5.169:33189]-01 03 00 8A 00 0A E4 27 ----
2020-09-28 11:38:35|Info|收到连接[4][4][405]心跳包
2020-09-28 11:38:35|Info|[M][39.144.5.169:33189]:01 03 14 00 04 00 27 00 21 00 09 BE 12 00 00 00 00 00 00 00 00 00 00 F1 EC
2020-09-28 11:38:35|Info|[M->1][39.144.5.169:33189]:01 03 14 00 04 00 27 00 21 00 09 BE 12 00 00 00 00 00 00 00 00 00 00 F1 EC
2020-09-28 11:38:35|Warn|[10.30.2.77:59040] client no longer connected
2020-09-28 11:38:35|Info|Get_XAGY_WII_WaterInjectingInstrument:定3867-5井:1009013:SLS-40:1
2020-09-28 11:38:35|Info|One客户端已连接,IP:10.30.2.77:59044
2020-09-28 11:38:35|Info|[1->M]----[402-39.144.5.169:33189]-01 03 00 94 00 0A 84 21 ----
2020-09-28 11:38:37|Info|[M][39.144.5.169:33189]:01 03 14 00 20 00 00 00 00 00 00 00 00 00 00 00 00 00 00 00 00 00 00 28 A0
2020-09-28 11:38:37|Info|[M->1][39.144.5.169:33189]:01 03 14 00 20 00 00 00 00 00 00 00 00 00 00 00 00 00 00 00 00 00 00 28 A0
2020-09-28 11:38:37|Warn|[10.30.2.77:59044] client no longer connected
2020-09-28 11:38:37|Info|Get_XAGY_WII_WaterInjectingInstrument:定44150-3井:1009014:SLS-40:1
2020-09-28 11:38:37|Info|One客户端已连接,IP:10.30.2.77:59046
2020-09-28 11:38:37|Info|[1->M]----[402-39.144.5.169:33189]-01 03 00 9E 00 0A A4 23 ----
2020-09-28 11:38:38|Info|[M][39.144.5.169:33189]:01 03 14 00 04 00 22 00 1A 00 07 5D 6A 00 00 00 00 00 00 00 00 00 00 89 7B
2020-09-28 11:38:38|Info|[M->1][39.144.5.169:33189]:01 03 14 00 04 00 22 00 1A 00 07 5D 6A 00 00 00 00 00 00 00 00 00 00 89 7B
2020-09-28 11:38:38|Warn|[10.30.2.77:59046] client no longer connected
2020-09-28 11:38:38|Info|Get_XAGY_WII_WaterInjectingInstrument:备用井:1009015:SLS-40:1
2020-09-28 11:38:38|Info|One客户端已连接,IP:10.30.2.77:59049
2020-09-28 11:38:38|Info|[1->M]----[402-39.144.5.169:33189]-01 03 00 A8 00 0A 44 2D ----
2020-09-28 11:38:39|Info|[M][39.144.5.169:33189]:01 03 14 00 04 00 00 00 00 00 00 0A 41 00 00 00 00 00 00 00 00 00 00 1B 72
2020-09-28 11:38:39|Info|[M->1][39.144.5.169:33189]:01 03 14 00 04 00 00 00 00 00 00 0A 41 00 00 00 00 00 00 00 00 00 00 1B 72
2020-09-28 11:38:39|Warn|[10.30.2.77:59049] client no longer connected
2020-09-28 11:38:39|Info|Get_XAGY_WII_WaterInjectingInstrument:定44121-2井:1009016:SLS-40:1
2020-09-28 11:38:39|Info|One客户端已连接,IP:10.30.2.77:59051
2020-09-28 11:38:42|Error|one client excetion 远程主机强迫关闭了一个现有的连接。,    at System.Net.Sockets.Socket.Receive(Byte[] buffer, Int32 offset, Int32 size, SocketFlags socketFlags)
   at System.Net.Sockets.Socket.Receive(Byte[] buffer, SocketFlags socketFlags)
   at YCIOT.ModbusPoll.RtuOverTcp.Bridge.TcpBridge.IsClientConnected(TcpClient client)
   at YCIOT.ModbusPoll.RtuOverTcp.Bridge.TcpBridge.OneDataReceiver(OneMetadata md)
2020-09-28 11:38:42|Info|Get_XAGY_WII_WaterInjectingInstrument:定44121-3井:1009017:SLS-40:1
2020-09-28 11:38:42|Info|One客户端已连接,IP:10.30.2.77:59055
2020-09-28 11:38:45|Error|one client excetion 远程主机强迫关闭了一个现有的连接。,    at System.Net.Sockets.Socket.Receive(Byte[] buffer, Int32 offset, Int32 size, SocketFlags socketFlags)
   at System.Net.Sockets.Socket.Receive(Byte[] buffer, SocketFlags socketFlags)
   at YCIOT.ModbusPoll.RtuOverTcp.Bridge.TcpBridge.IsClientConnected(TcpClient client)
   at YCIOT.ModbusPoll.RtuOverTcp.Bridge.TcpBridge.OneDataReceiver(OneMetadata md)
2020-09-28 11:38:45|Info|Get_XAGY_WII_WaterInjectingInstrument:定44121-1井:1009018:SLS-40:1
2020-09-28 11:38:45|Info|One客户端已连接,IP:10.30.2.77:59059
2020-09-28 11:38:46|Info|收到连接[4][4][407]心跳包
2020-09-28 11:38:48|Error|one client excetion 远程主机强迫关闭了一个现有的连接。,    at System.Net.Sockets.Socket.Receive(Byte[] buffer, Int32 offset, Int32 size, SocketFlags socketFlags)
   at System.Net.Sockets.Socket.Receive(Byte[] buffer, SocketFlags socketFlags)
   at YCIOT.ModbusPoll.RtuOverTcp.Bridge.TcpBridge.IsClientConnected(TcpClient client)
   at YCIOT.ModbusPoll.RtuOverTcp.Bridge.TcpBridge.OneDataReceiver(OneMetadata md)
2020-09-28 11:38:48|Info|Get_XAGY_WII_WaterInjectingInstrument:定44127-2井:1009019:SLS-40:1
2020-09-28 11:38:48|Info|One客户端已连接,IP:10.30.2.77:59063
2020-09-28 11:38:50|Info|收到连接[4][4][408]心跳包
2020-09-28 11:38:51|Error|one client excetion 远程主机强迫关闭了一个现有的连接。,    at System.Net.Sockets.Socket.Receive(Byte[] buffer, Int32 offset, Int32 size, SocketFlags socketFlags)
   at System.Net.Sockets.Socket.Receive(Byte[] buffer, SocketFlags socketFlags)
   at YCIOT.ModbusPoll.RtuOverTcp.Bridge.TcpBridge.IsClientConnected(TcpClient client)
   at YCIOT.ModbusPoll.RtuOverTcp.Bridge.TcpBridge.OneDataReceiver(OneMetadata md)
2020-09-28 11:38:51|Info|Get_XAGY_WII_WaterInjectingInstrument:备用井:1009020:SLS-40:1
2020-09-28 11:38:51|Info|One客户端已连接,IP:10.30.2.77:59068
2020-09-28 11:38:54|Error|one client excetion 远程主机强迫关闭了一个现有的连接。,    at System.Net.Sockets.Socket.Receive(Byte[] buffer, Int32 offset, Int32 size, SocketFlags socketFlags)
   at System.Net.Sockets.Socket.Receive(Byte[] buffer, SocketFlags socketFlags)
   at YCIOT.ModbusPoll.RtuOverTcp.Bridge.TcpBridge.IsClientConnected(TcpClient client)
   at YCIOT.ModbusPoll.RtuOverTcp.Bridge.TcpBridge.OneDataReceiver(OneMetadata md)
2020-09-28 11:38:54|Info|Get_XAGY_WII_WaterInjectingInstrument:定44127-3井:1009021:SLS-40:1
2020-09-28 11:38:54|Info|One客户端已连接,IP:10.30.2.77:59073
2020-09-28 11:38:57|Error|one client excetion 远程主机强迫关闭了一个现有的连接。,    at System.Net.Sockets.Socket.Receive(Byte[] buffer, Int32 offset, Int32 size, SocketFlags socketFlags)
   at System.Net.Sockets.Socket.Receive(Byte[] buffer, SocketFlags socketFlags)
   at YCIOT.ModbusPoll.RtuOverTcp.Bridge.TcpBridge.IsClientConnected(TcpClient client)
   at YCIOT.ModbusPoll.RtuOverTcp.Bridge.TcpBridge.OneDataReceiver(OneMetadata md)
2020-09-28 11:38:57|Info|Get_XAGY_WII_WaterInjectingInstrument:备用井:1009022:SLS-40:1
2020-09-28 11:38:57|Info|One客户端已连接,IP:10.30.2.77:59077
2020-09-28 11:39:00|Error|one client excetion 远程主机强迫关闭了一个现有的连接。,    at System.Net.Sockets.Socket.Receive(Byte[] buffer, Int32 offset, Int32 size, SocketFlags socketFlags)
   at System.Net.Sockets.Socket.Receive(Byte[] buffer, SocketFlags socketFlags)
   at YCIOT.ModbusPoll.RtuOverTcp.Bridge.TcpBridge.IsClientConnected(TcpClient client)
   at YCIOT.ModbusPoll.RtuOverTcp.Bridge.TcpBridge.OneDataReceiver(OneMetadata md)
2020-09-28 11:39:00|Info|Get_XAGY_WII_WaterInjectingInstrument:定44125-2井:1009023:SLS-40:1
2020-09-28 11:39:00|Info|One客户端已连接,IP:10.30.2.77:59082
2020-09-28 11:39:03|Error|one client excetion 远程主机强迫关闭了一个现有的连接。,    at System.Net.Sockets.Socket.Receive(Byte[] buffer, Int32 offset, Int32 size, SocketFlags socketFlags)
   at System.Net.Sockets.Socket.Receive(Byte[] buffer, SocketFlags socketFlags)
   at YCIOT.ModbusPoll.RtuOverTcp.Bridge.TcpBridge.IsClientConnected(TcpClient client)
   at YCIOT.ModbusPoll.RtuOverTcp.Bridge.TcpBridge.OneDataReceiver(OneMetadata md)
2020-09-28 11:39:03|Info|Get_XAGY_WII_WaterInjectingInstrument:定44123-1井:1009024:SLS-40:1
2020-09-28 11:39:03|Info|One客户端已连接,IP:10.30.2.77:59086
2020-09-28 11:39:05|Info|收到连接[4][4][405]心跳包
2020-09-28 11:39:06|Error|one client excetion 远程主机强迫关闭了一个现有的连接。,    at System.Net.Sockets.Socket.Receive(Byte[] buffer, Int32 offset, Int32 size, SocketFlags socketFlags)
   at System.Net.Sockets.Socket.Receive(Byte[] buffer, SocketFlags socketFlags)
   at YCIOT.ModbusPoll.RtuOverTcp.Bridge.TcpBridge.IsClientConnected(TcpClient client)
   at YCIOT.ModbusPoll.RtuOverTcp.Bridge.TcpBridge.OneDataReceiver(OneMetadata md)
2020-09-28 11:39:06|Info|Get_XAGY_WII_WaterInjectingInstrument:备用井:1009025:SLS-40:1
2020-09-28 11:39:06|Info|One客户端已连接,IP:10.30.2.77:59091
2020-09-28 11:39:09|Info|收到连接[4][4][402]心跳包
2020-09-28 11:39:09|Error|one client excetion 远程主机强迫关闭了一个现有的连接。,    at System.Net.Sockets.Socket.Receive(Byte[] buffer, Int32 offset, Int32 size, SocketFlags socketFlags)
   at System.Net.Sockets.Socket.Receive(Byte[] buffer, SocketFlags socketFlags)
   at YCIOT.ModbusPoll.RtuOverTcp.Bridge.TcpBridge.IsClientConnected(TcpClient client)
   at YCIOT.ModbusPoll.RtuOverTcp.Bridge.TcpBridge.OneDataReceiver(OneMetadata md)
2020-09-28 11:39:09|Info|Get_XAGY_WII_WaterInjectingInstrument:定44123-2井:1009026:SLS-40:1
2020-09-28 11:39:09|Info|One客户端已连接,IP:10.30.2.77:59094
2020-09-28 11:39:12|Error|one client excetion 远程主机强迫关闭了一个现有的连接。,    at System.Net.Sockets.Socket.Receive(Byte[] buffer, Int32 offset, Int32 size, SocketFlags socketFlags)
   at System.Net.Sockets.Socket.Receive(Byte[] buffer, SocketFlags socketFlags)
   at YCIOT.ModbusPoll.RtuOverTcp.Bridge.TcpBridge.IsClientConnected(TcpClient client)
   at YCIOT.ModbusPoll.RtuOverTcp.Bridge.TcpBridge.OneDataReceiver(OneMetadata md)
2020-09-28 11:39:12|Info|Get_XAGY_WII_WaterInjectingInstrument:备用井:1009027:SLS-40:1
2020-09-28 11:39:12|Info|One客户端已连接,IP:10.30.2.77:59099
2020-09-28 11:39:15|Error|one client excetion 远程主机强迫关闭了一个现有的连接。,    at System.Net.Sockets.Socket.Receive(Byte[] buffer, Int32 offset, Int32 size, SocketFlags socketFlags)
   at System.Net.Sockets.Socket.Receive(Byte[] buffer, SocketFlags socketFlags)
   at YCIOT.ModbusPoll.RtuOverTcp.Bridge.TcpBridge.IsClientConnected(TcpClient client)
   at YCIOT.ModbusPoll.RtuOverTcp.Bridge.TcpBridge.OneDataReceiver(OneMetadata md)
2020-09-28 11:39:15|Info|Get_XAGY_WII_WaterInjectingInstrument:定44127-1井:1009028:SLS-40:1
2020-09-28 11:39:15|Info|One客户端已连接,IP:10.30.2.77:59103
2020-09-28 11:39:16|Info|收到连接[4][4][407]心跳包
2020-09-28 11:39:19|Error|one client excetion 远程主机强迫关闭了一个现有的连接。,    at System.Net.Sockets.Socket.Receive(Byte[] buffer, Int32 offset, Int32 size, SocketFlags socketFlags)
   at System.Net.Sockets.Socket.Receive(Byte[] buffer, SocketFlags socketFlags)
   at YCIOT.ModbusPoll.RtuOverTcp.Bridge.TcpBridge.IsClientConnected(TcpClient client)
   at YCIOT.ModbusPoll.RtuOverTcp.Bridge.TcpBridge.OneDataReceiver(OneMetadata md)
2020-09-28 11:39:19|Info|Get_XAGY_WII_WaterInjectingInstrument:定44088-5井:1009029:SLS-40:1
2020-09-28 11:39:19|Info|One客户端已连接,IP:10.30.2.77:59108
2020-09-28 11:39:19|Info|[1->M]----[405-117.132.198.60:49014]-01 03 00 4E 00 0A A5 DA ----
2020-09-28 11:39:20|Info|收到连接[4][4][408]心跳包
2020-09-28 11:39:21|Info|[M][117.132.198.60:49014]:01 03 14 00 04 00 2E 00 2E 00 03 05 83 00 00 00 00 06 18 00 00 00 00 0E CF
2020-09-28 11:39:21|Info|[M->1][117.132.198.60:49014]:01 03 14 00 04 00 2E 00 2E 00 03 05 83 00 00 00 00 06 18 00 00 00 00 0E CF
2020-09-28 11:39:21|Warn|[10.30.2.77:59108] client no longer connected
2020-09-28 11:39:21|Info|Get_XAGY_WII_WaterInjectingInstrument:定44088-3井:1009030:SLS-40:1
2020-09-28 11:39:21|Info|One客户端已连接,IP:10.30.2.77:59112
2020-09-28 11:39:21|Info|[1->M]----[405-117.132.198.60:49014]-01 03 00 58 00 0A 44 1E ----
2020-09-28 11:39:22|Info|[M][117.132.198.60:49014]:01 03 14 00 04 00 1E 00 00 00 00 8E 52 00 00 00 00 06 EA 00 00 00 00 C3 50
2020-09-28 11:39:22|Info|[M->1][117.132.198.60:49014]:01 03 14 00 04 00 1E 00 00 00 00 8E 52 00 00 00 00 06 EA 00 00 00 00 C3 50
2020-09-28 11:39:22|Warn|[10.30.2.77:59112] client no longer connected
2020-09-28 11:39:22|Info|Get_XAGY_WII_WaterInjectingInstrument:备用井:1009031:SLS-40:1
2020-09-28 11:39:22|Info|One客户端已连接,IP:10.30.2.77:59113
2020-09-28 11:39:22|Info|[1->M]----[405-117.132.198.60:49014]-01 03 00 62 00 0A 64 13 ----
2020-09-28 11:39:23|Info|[M][117.132.198.60:49014]:01 03 14 00 04 00 1E 00 00 00 00 00 15 00 00 00 00 00 00 00 00 00 00 7E FD
2020-09-28 11:39:23|Info|[M->1][117.132.198.60:49014]:01 03 14 00 04 00 1E 00 00 00 00 00 15 00 00 00 00 00 00 00 00 00 00 7E FD
2020-09-28 11:39:23|Warn|[10.30.2.77:59113] client no longer connected
2020-09-28 11:39:23|Info|Get_XAGY_WII_WaterInjectingInstrument:定44088-1井:1009032:SLS-40:1
2020-09-28 11:39:23|Info|One客户端已连接,IP:10.30.2.77:59115
2020-09-28 11:39:23|Info|[1->M]----[405-117.132.198.60:49014]-01 03 00 6C 00 0A 05 D0 ----
2020-09-28 11:39:25|Info|[M][117.132.198.60:49014]:01 03 14 00 04 00 19 00 00 00 01 1A 55 00 00 00 00 00 00 00 00 00 00 42 6B
2020-09-28 11:39:25|Info|[M->1][117.132.198.60:49014]:01 03 14 00 04 00 19 00 00 00 01 1A 55 00 00 00 00 00 00 00 00 00 00 42 6B
2020-09-28 11:39:25|Warn|[10.30.2.77:59115] client no longer connected
2020-09-28 11:39:25|Info|Get_XAGY_WII_WaterInjectingInstrument:定44133-1井:1009033:SLS-40:1
2020-09-28 11:39:25|Info|One客户端已连接,IP:10.30.2.77:59117
2020-09-28 11:39:25|Info|[1->M]----[405-117.132.198.60:49014]-01 03 00 76 00 0A 24 17 ----
2020-09-28 11:39:26|Info|[M][117.132.198.60:49014]:01 03 14 00 04 00 0D 00 0A 00 00 B3 08 00 00 00 00 06 F4 00 00 00 00 91 2A
2020-09-28 11:39:26|Info|[M->1][117.132.198.60:49014]:01 03 14 00 04 00 0D 00 0A 00 00 B3 08 00 00 00 00 06 F4 00 00 00 00 91 2A
2020-09-28 11:39:26|Warn|[10.30.2.77:59117] client no longer connected
2020-09-28 11:39:26|Info|Get_XAGY_WII_WaterInjectingInstrument:定3864-4井:1009034:SLS-40:1
2020-09-28 11:39:26|Info|One客户端已连接,IP:10.30.2.77:59119
2020-09-28 11:39:26|Info|[1->M]----[405-117.132.198.60:49014]-01 03 00 80 00 0A C4 25 ----
2020-09-28 11:39:27|Info|[M][117.132.198.60:49014]:01 03 14 00 04 00 15 00 00 00 01 34 D2 00 00 00 00 00 50 00 00 00 00 9C BA
2020-09-28 11:39:27|Info|[M->1][117.132.198.60:49014]:01 03 14 00 04 00 15 00 00 00 01 34 D2 00 00 00 00 00 50 00 00 00 00 9C BA
2020-09-28 11:39:27|Warn|[10.30.2.77:59119] client no longer connected
2020-09-28 11:39:27|Info|Get_XAGY_WII_WaterInjectingInstrument:定44131-2井:1009035:SLS-40:1
2020-09-28 11:39:27|Info|One客户端已连接,IP:10.30.2.77:59121
2020-09-28 11:39:27|Info|[1->M]----[405-117.132.198.60:49014]-01 03 00 8A 00 0A E4 27 ----
2020-09-28 11:39:28|Info|[M][117.132.198.60:49014]:01 03 14 00 04 00 0D 00 04 00 00 84 CC 00 00 00 00 06 F4 00 00 00 00 43 96
2020-09-28 11:39:28|Info|[M->1][117.132.198.60:49014]:01 03 14 00 04 00 0D 00 04 00 00 84 CC 00 00 00 00 06 F4 00 00 00 00 43 96
2020-09-28 11:39:28|Warn|[10.30.2.77:59121] client no longer connected
2020-09-28 11:39:28|Info|Get_XAGY_WII_WaterInjectingInstrument:定44131-1井:1009036:SLS-40:1
2020-09-28 11:39:28|Info|One客户端已连接,IP:10.30.2.77:59122
2020-09-28 11:39:28|Info|[1->M]----[405-117.132.198.60:49014]-01 03 00 94 00 0A 84 21 ----
2020-09-28 11:39:29|Info|[M][117.132.198.60:49014]:01 03 14 00 04 00 0D 00 0D 00 00 E8 E0 00 00 00 00 06 EA 00 00 00 00 26 92
2020-09-28 11:39:29|Info|[M->1][117.132.198.60:49014]:01 03 14 00 04 00 0D 00 0D 00 00 E8 E0 00 00 00 00 06 EA 00 00 00 00 26 92
2020-09-28 11:39:29|Warn|[10.30.2.77:59122] client no longer connected
2020-09-28 11:39:29|Info|Get_XAGY_WII_WaterInjectingInstrument:定44137-4井:1009037:SLS-40:1
2020-09-28 11:39:29|Info|One客户端已连接,IP:10.30.2.77:59126
2020-09-28 11:39:32|Error|one client excetion 远程主机强迫关闭了一个现有的连接。,    at System.Net.Sockets.Socket.Receive(Byte[] buffer, Int32 offset, Int32 size, SocketFlags socketFlags)
   at System.Net.Sockets.Socket.Receive(Byte[] buffer, SocketFlags socketFlags)
   at YCIOT.ModbusPoll.RtuOverTcp.Bridge.TcpBridge.IsClientConnected(TcpClient client)
   at YCIOT.ModbusPoll.RtuOverTcp.Bridge.TcpBridge.OneDataReceiver(OneMetadata md)
2020-09-28 11:39:32|Info|Get_XAGY_WII_WaterInjectingInstrument:定44137-2井:1009038:SLS-40:1
2020-09-28 11:39:33|Info|One客户端已连接,IP:10.30.2.77:59130
2020-09-28 11:39:36|Error|one client excetion 远程主机强迫关闭了一个现有的连接。,    at System.Net.Sockets.Socket.Receive(Byte[] buffer, Int32 offset, Int32 size, SocketFlags socketFlags)
   at System.Net.Sockets.Socket.Receive(Byte[] buffer, SocketFlags socketFlags)
   at YCIOT.ModbusPoll.RtuOverTcp.Bridge.TcpBridge.IsClientConnected(TcpClient client)
   at YCIOT.ModbusPoll.RtuOverTcp.Bridge.TcpBridge.OneDataReceiver(OneMetadata md)
2020-09-28 11:39:36|Info|Get_XAGY_WII_WaterInjectingInstrument:备用井:1009039:SLS-40:1
2020-09-28 11:39:36|Info|One客户端已连接,IP:10.30.2.77:59135
2020-09-28 11:39:39|Error|one client excetion 远程主机强迫关闭了一个现有的连接。,    at System.Net.Sockets.Socket.Receive(Byte[] buffer, Int32 offset, Int32 size, SocketFlags socketFlags)
   at System.Net.Sockets.Socket.Receive(Byte[] buffer, SocketFlags socketFlags)
   at YCIOT.ModbusPoll.RtuOverTcp.Bridge.TcpBridge.IsClientConnected(TcpClient client)
   at YCIOT.ModbusPoll.RtuOverTcp.Bridge.TcpBridge.OneDataReceiver(OneMetadata md)
2020-09-28 11:39:39|Info|Get_XAGY_WII_WaterInjectingInstrument:备用井:1009040:SLS-40:1
2020-09-28 11:39:39|Info|One客户端已连接,IP:10.30.2.77:59139
2020-09-28 11:39:39|Info|收到连接[4][4][402]心跳包
2020-09-28 11:39:42|Error|one client excetion 远程主机强迫关闭了一个现有的连接。,    at System.Net.Sockets.Socket.Receive(Byte[] buffer, Int32 offset, Int32 size, SocketFlags socketFlags)
   at System.Net.Sockets.Socket.Receive(Byte[] buffer, SocketFlags socketFlags)
   at YCIOT.ModbusPoll.RtuOverTcp.Bridge.TcpBridge.IsClientConnected(TcpClient client)
   at YCIOT.ModbusPoll.RtuOverTcp.Bridge.TcpBridge.OneDataReceiver(OneMetadata md)
2020-09-28 11:39:42|Info|Get_XAGY_WII_WaterInjectingInstrument:定3800-1井:1009041:SLS-40:1
2020-09-28 11:39:42|Info|One客户端已连接,IP:10.30.2.77:59144
2020-09-28 11:39:42|Info|[1->M]----[407-221.178.124.151:32426]-01 03 00 4E 00 0A A5 DA ----
2020-09-28 11:39:43|Info|[M][221.178.124.151:32426]:01 03 14 00 04 00 15 00 10 00 01 30 B6 00 00 00 00 05 00 00 00 00 00 56 11
2020-09-28 11:39:43|Info|[M->1][221.178.124.151:32426]:01 03 14 00 04 00 15 00 10 00 01 30 B6 00 00 00 00 05 00 00 00 00 00 56 11
2020-09-28 11:39:43|Warn|[10.30.2.77:59144] client no longer connected
2020-09-28 11:39:43|Info|Get_XAGY_WII_WaterInjectingInstrument:定3800-2井:1009042:SLS-40:1
2020-09-28 11:39:43|Info|One客户端已连接,IP:10.30.2.77:59145
2020-09-28 11:39:43|Info|[1->M]----[407-221.178.124.151:32426]-01 03 00 58 00 0A 44 1E ----
2020-09-28 11:39:44|Info|[M][221.178.124.151:32426]:01 03 14 00 04 00 14 00 15 00 01 80 60 00 00 00 00 04 EC 00 00 00 00 A6 F1
2020-09-28 11:39:44|Info|[M->1][221.178.124.151:32426]:01 03 14 00 04 00 14 00 15 00 01 80 60 00 00 00 00 04 EC 00 00 00 00 A6 F1
2020-09-28 11:39:44|Warn|[10.30.2.77:59145] client no longer connected
2020-09-28 11:39:44|Info|Get_XAGY_WII_WaterInjectingInstrument:定3844-3井:1009043:SLS-40:1
2020-09-28 11:39:44|Info|One客户端已连接,IP:10.30.2.77:59148
2020-09-28 11:39:44|Info|[1->M]----[408-39.144.5.151:24947]-01 03 00 4E 00 0A A5 DA ----
2020-09-28 11:39:45|Info|[M][39.144.5.151:24947]:01 03 14 00 04 00 16 00 15 00 00 D8 8C 00 00 00 00 04 F6 00 00 00 00 15 5E
2020-09-28 11:39:45|Info|[M->1][39.144.5.151:24947]:01 03 14 00 04 00 16 00 15 00 00 D8 8C 00 00 00 00 04 F6 00 00 00 00 15 5E
2020-09-28 11:39:46|Warn|[10.30.2.77:59148] client no longer connected
2020-09-28 11:39:46|Info|Get_XAGY_WII_WaterInjectingInstrument:定3851-1井:1009044:SLS-40:1
2020-09-28 11:39:46|Info|One客户端已连接,IP:10.30.2.77:59150
2020-09-28 11:39:46|Info|[1->M]----[408-39.144.5.151:24947]-01 03 00 58 00 0A 44 1E ----
2020-09-28 11:39:46|Info|[M][39.144.5.151:24947]:01 03 14 00 04 00 2A 00 2B 00 02 AD 5C 00 00 00 00 00 00 00 00 00 00 51 21
2020-09-28 11:39:46|Info|[M->1][39.144.5.151:24947]:01 03 14 00 04 00 2A 00 2B 00 02 AD 5C 00 00 00 00 00 00 00 00 00 00 51 21
2020-09-28 11:39:47|Warn|[10.30.2.77:59150] client no longer connected
2020-09-28 11:39:47|Info|Get_XAGY_WII_WaterInjectingInstrument:定3844-7井:1009045:SLS-40:1
2020-09-28 11:39:47|Info|One客户端已连接,IP:10.30.2.77:59152
2020-09-28 11:39:47|Info|[1->M]----[408-39.144.5.151:24947]-01 03 00 62 00 0A 64 13 ----
2020-09-28 11:39:48|Info|[M][39.144.5.151:24947]:01 03 14 00 04 00 2A 00 2A 00 01 2E 12 00 00 00 00 04 F6 00 00 00 00 3B 20
2020-09-28 11:39:48|Info|[M->1][39.144.5.151:24947]:01 03 14 00 04 00 2A 00 2A 00 01 2E 12 00 00 00 00 04 F6 00 00 00 00 3B 20
2020-09-28 11:39:48|Warn|[10.30.2.77:59152] client no longer connected
2020-09-28 11:39:48|Info|Get_XAGY_WII_WaterInjectingInstrument:定3852-1井:1009046:SLS-40:1
2020-09-28 11:39:48|Info|One客户端已连接,IP:10.30.2.77:59155
2020-09-28 11:39:48|Info|[1->M]----[408-39.144.5.151:24947]-01 03 00 6C 00 0A 05 D0 ----
2020-09-28 11:39:49|Info|[M][39.144.5.151:24947]:01 03 14 00 04 00 19 00 16 00 01 65 2C 00 00 00 00 04 C4 00 00 00 00 F5 06
2020-09-28 11:39:49|Info|[M->1][39.144.5.151:24947]:01 03 14 00 04 00 19 00 16 00 01 65 2C 00 00 00 00 04 C4 00 00 00 00 F5 06
2020-09-28 11:39:49|Warn|[10.30.2.77:59155] client no longer connected
2020-09-28 11:39:49|Info|Get_XAGY_WII_WaterInjectingInstrument:定3843-2井:1009047:SLS-40:1
2020-09-28 11:39:49|Info|One客户端已连接,IP:10.30.2.77:59156
2020-09-28 11:39:49|Info|[1->M]----[408-39.144.5.151:24947]-01 03 00 76 00 0A 24 17 ----
2020-09-28 11:39:50|Info|[M][39.144.5.151:24947]:01 03 14 00 04 00 2A 00 2A 00 02 65 0B 00 00 00 00 04 EC 00 00 00 00 F9 99
2020-09-28 11:39:50|Info|[M->1][39.144.5.151:24947]:01 03 14 00 04 00 2A 00 2A 00 02 65 0B 00 00 00 00 04 EC 00 00 00 00 F9 99
2020-09-28 11:39:50|Warn|[10.30.2.77:59156] client no longer connected
2020-09-28 11:39:50|Info|Get_XAGY_WII_WaterInjectingInstrument:定3841-2井:1009048:SLS-40:1
2020-09-28 11:39:50|Info|One客户端已连接,IP:10.30.2.77:59160
2020-09-28 11:39:50|Info|[1->M]----[408-39.144.5.151:24947]-01 03 00 80 00 0A C4 25 ----
2020-09-28 11:39:52|Info|[M][39.144.5.151:24947]:01 03 14 00 04 00 2A 00 23 00 02 D3 B4 00 00 00 00 04 7E 00 00 00 00 A5 A2
2020-09-28 11:39:52|Info|[M->1][39.144.5.151:24947]:01 03 14 00 04 00 2A 00 23 00 02 D3 B4 00 00 00 00 04 7E 00 00 00 00 A5 A2
2020-09-28 11:39:52|Warn|[10.30.2.77:59160] client no longer connected
2020-09-28 11:39:52|Info|Get_XAGY_WII_WaterInjectingInstrument:定3841-5井:1009049:SLS-40:1
2020-09-28 11:39:52|Info|One客户端已连接,IP:10.30.2.77:59162
2020-09-28 11:39:52|Info|[1->M]----[408-39.144.5.151:24947]-01 03 00 8A 00 0A E4 27 ----
2020-09-28 11:39:54|Info|[M][39.144.5.151:24947]:01 03 14 00 04 00 2A 00 2A 00 01 19 4C 00 00 00 00 05 00 00 00 00 00 72 86
2020-09-28 11:39:54|Info|[M->1][39.144.5.151:24947]:01 03 14 00 04 00 2A 00 2A 00 01 19 4C 00 00 00 00 05 00 00 00 00 00 72 86
2020-09-28 11:39:55|Warn|[10.30.2.77:59162] client no longer connected
2020-09-28 11:39:55|Info|Get_XAGY_WII_WaterInjectingInstrument:定3841-3井:1009050:SLS-40:1
2020-09-28 11:39:55|Info|One客户端已连接,IP:10.30.2.77:59166
2020-09-28 11:39:55|Info|[1->M]----[408-39.144.5.151:24947]-01 03 00 94 00 0A 84 21 ----
2020-09-28 11:39:56|Info|[M][39.144.5.151:24947]:01 03 14 00 04 00 42 00 39 00 04 61 9F 00 00 00 00 04 60 00 00 00 00 04 AC
2020-09-28 11:39:56|Info|[M->1][39.144.5.151:24947]:01 03 14 00 04 00 42 00 39 00 04 61 9F 00 00 00 00 04 60 00 00 00 00 04 AC
2020-09-28 11:39:56|Warn|[10.30.2.77:59166] client no longer connected
2020-09-28 11:39:56|Info|Get_XAGY_WTPM_TrunkPressure:定38017配水间:100701:SLS-40:1
2020-09-28 11:39:56|Info|One客户端已连接,IP:10.30.2.77:59168
2020-09-28 11:39:59|Error|one client excetion 远程主机强迫关闭了一个现有的连接。,    at System.Net.Sockets.Socket.Receive(Byte[] buffer, Int32 offset, Int32 size, SocketFlags socketFlags)
   at System.Net.Sockets.Socket.Receive(Byte[] buffer, SocketFlags socketFlags)
   at YCIOT.ModbusPoll.RtuOverTcp.Bridge.TcpBridge.IsClientConnected(TcpClient client)
   at YCIOT.ModbusPoll.RtuOverTcp.Bridge.TcpBridge.OneDataReceiver(OneMetadata md)
2020-09-28 11:39:59|Info|Get_XAGY_WTPM_TrunkPressure:定44150配水间:100702:SLS-40:1
2020-09-28 11:39:59|Info|One客户端已连接,IP:10.30.2.77:59173
2020-09-28 11:39:59|Info|[1->M]----[402-39.144.5.169:33189]-01 04 00 0A 00 01 11 C8 ----
2020-09-28 11:40:01|Info|收到连接[4][4][405]心跳包
2020-09-28 11:40:01|Info|[M][39.144.5.169:33189]:01 04 02 00 00 B9 30
2020-09-28 11:40:01|Info|[M->1][39.144.5.169:33189]:01 04 02 00 00 B9 30
2020-09-28 11:40:01|Warn|[10.30.2.77:59173] client no longer connected
2020-09-28 11:40:01|Info|Get_XAGY_WTPM_TrunkPressure:定44125配水间A:100703:SLS-40:1
2020-09-28 11:40:01|Info|One客户端已连接,IP:10.30.2.77:59193
2020-09-28 11:40:04|Error|one client excetion 远程主机强迫关闭了一个现有的连接。,    at System.Net.Sockets.Socket.Receive(Byte[] buffer, Int32 offset, Int32 size, SocketFlags socketFlags)
   at System.Net.Sockets.Socket.Receive(Byte[] buffer, SocketFlags socketFlags)
   at YCIOT.ModbusPoll.RtuOverTcp.Bridge.TcpBridge.IsClientConnected(TcpClient client)
   at YCIOT.ModbusPoll.RtuOverTcp.Bridge.TcpBridge.OneDataReceiver(OneMetadata md)
2020-09-28 11:40:04|Info|Get_XAGY_WII_WaterInjectingInstrument:定3844-3井:1009001:SLS-40:1
2020-09-28 11:40:04|Info|One客户端已连接,IP:10.30.2.77:59212
2020-09-28 11:40:07|Error|one client excetion 远程主机强迫关闭了一个现有的连接。,    at System.Net.Sockets.Socket.Receive(Byte[] buffer, Int32 offset, Int32 size, SocketFlags socketFlags)
   at System.Net.Sockets.Socket.Receive(Byte[] buffer, SocketFlags socketFlags)
   at YCIOT.ModbusPoll.RtuOverTcp.Bridge.TcpBridge.IsClientConnected(TcpClient client)
   at YCIOT.ModbusPoll.RtuOverTcp.Bridge.TcpBridge.OneDataReceiver(OneMetadata md)
2020-09-28 11:40:07|Info|Get_XAGY_WTPM_TrunkPressure:定44125配水间B:100704:SLS-40:1
2020-09-28 11:40:07|Info|One客户端已连接,IP:10.30.2.77:59234
2020-09-28 11:40:10|Error|one client excetion 远程主机强迫关闭了一个现有的连接。,    at System.Net.Sockets.Socket.Receive(Byte[] buffer, Int32 offset, Int32 size, SocketFlags socketFlags)
   at System.Net.Sockets.Socket.Receive(Byte[] buffer, SocketFlags socketFlags)
   at YCIOT.ModbusPoll.RtuOverTcp.Bridge.TcpBridge.IsClientConnected(TcpClient client)
   at YCIOT.ModbusPoll.RtuOverTcp.Bridge.TcpBridge.OneDataReceiver(OneMetadata md)
2020-09-28 11:40:10|Info|Get_XAGY_WII_WaterInjectingInstrument:定38019-2井:1009002:SLS-40:1
2020-09-28 11:40:10|Info|One客户端已连接,IP:10.30.2.77:59274
2020-09-28 11:40:14|Error|one client excetion 远程主机强迫关闭了一个现有的连接。,    at System.Net.Sockets.Socket.Receive(Byte[] buffer, Int32 offset, Int32 size, SocketFlags socketFlags)
   at System.Net.Sockets.Socket.Receive(Byte[] buffer, SocketFlags socketFlags)
   at YCIOT.ModbusPoll.RtuOverTcp.Bridge.TcpBridge.IsClientConnected(TcpClient client)
   at YCIOT.ModbusPoll.RtuOverTcp.Bridge.TcpBridge.OneDataReceiver(OneMetadata md)
2020-09-28 11:40:14|Info|Get_XAGY_WTPM_TrunkPressure:定44088配水间:100705:SLS-40:1
2020-09-28 11:40:14|Info|One客户端已连接,IP:10.30.2.77:59312
2020-09-28 11:40:14|Info|[1->M]----[405-117.132.198.60:49014]-01 04 00 0A 00 01 11 C8 ----
2020-09-28 11:40:15|Info|[M][117.132.198.60:49014]:01 04 02 06 F2 3B 15
2020-09-28 11:40:15|Info|[M->1][117.132.198.60:49014]:01 04 02 06 F2 3B 15
2020-09-28 11:40:15|Warn|[10.30.2.77:59312] client no longer connected
2020-09-28 11:40:15|Info|Get_XAGY_WII_WaterInjectingInstrument:定3853A-7井:1009003:SLS-40:1
2020-09-28 11:40:15|Info|One客户端已连接,IP:10.30.2.77:59330
2020-09-28 11:40:16|Info|收到连接[4][4][407]心跳包
2020-09-28 11:40:18|Error|one client excetion 远程主机强迫关闭了一个现有的连接。,    at System.Net.Sockets.Socket.Receive(Byte[] buffer, Int32 offset, Int32 size, SocketFlags socketFlags)
   at System.Net.Sockets.Socket.Receive(Byte[] buffer, SocketFlags socketFlags)
   at YCIOT.ModbusPoll.RtuOverTcp.Bridge.TcpBridge.IsClientConnected(TcpClient client)
   at YCIOT.ModbusPoll.RtuOverTcp.Bridge.TcpBridge.OneDataReceiver(OneMetadata md)
2020-09-28 11:40:18|Info|Get_XAGY_WTPM_TrunkPressure:定44137配水间:100706:SLS-40:1
2020-09-28 11:40:18|Info|One客户端已连接,IP:10.30.2.77:59349
2020-09-28 11:40:21|Error|one client excetion 远程主机强迫关闭了一个现有的连接。,    at System.Net.Sockets.Socket.Receive(Byte[] buffer, Int32 offset, Int32 size, SocketFlags socketFlags)
   at System.Net.Sockets.Socket.Receive(Byte[] buffer, SocketFlags socketFlags)
   at YCIOT.ModbusPoll.RtuOverTcp.Bridge.TcpBridge.IsClientConnected(TcpClient client)
   at YCIOT.ModbusPoll.RtuOverTcp.Bridge.TcpBridge.OneDataReceiver(OneMetadata md)
2020-09-28 11:40:21|Info|Get_XAGY_WII_WaterInjectingInstrument:定3853A-6井:1009004:SLS-40:1
2020-09-28 11:40:21|Info|One客户端已连接,IP:10.30.2.77:59365
2020-09-28 11:40:24|Error|one client excetion 远程主机强迫关闭了一个现有的连接。,    at System.Net.Sockets.Socket.Receive(Byte[] buffer, Int32 offset, Int32 size, SocketFlags socketFlags)
   at System.Net.Sockets.Socket.Receive(Byte[] buffer, SocketFlags socketFlags)
   at YCIOT.ModbusPoll.RtuOverTcp.Bridge.TcpBridge.IsClientConnected(TcpClient client)
   at YCIOT.ModbusPoll.RtuOverTcp.Bridge.TcpBridge.OneDataReceiver(OneMetadata md)
2020-09-28 11:40:24|Info|Get_XAGY_WTPM_TrunkPressure:定3800配水间A:100707:SLS-40:1
2020-09-28 11:40:24|Info|One客户端已连接,IP:10.30.2.77:59377
2020-09-28 11:40:24|Info|[1->M]----[407-221.178.124.151:32426]-01 04 00 0A 00 01 11 C8 ----
2020-09-28 11:40:26|Info|[M][221.178.124.151:32426]:01 04 02 05 06 3A 62
2020-09-28 11:40:26|Info|[M->1][221.178.124.151:32426]:01 04 02 05 06 3A 62
2020-09-28 11:40:26|Warn|[10.30.2.77:59377] client no longer connected
2020-09-28 11:40:26|Info|Get_XAGY_WII_WaterInjectingInstrument:定3853A-1井:1009005:SLS-40:1
2020-09-28 11:40:26|Info|One客户端已连接,IP:10.30.2.77:59389
2020-09-28 11:40:26|Info|收到连接[4][4][408]心跳包
2020-09-28 11:40:29|Error|one client excetion 远程主机强迫关闭了一个现有的连接。,    at System.Net.Sockets.Socket.Receive(Byte[] buffer, Int32 offset, Int32 size, SocketFlags socketFlags)
   at System.Net.Sockets.Socket.Receive(Byte[] buffer, SocketFlags socketFlags)
   at YCIOT.ModbusPoll.RtuOverTcp.Bridge.TcpBridge.IsClientConnected(TcpClient client)
   at YCIOT.ModbusPoll.RtuOverTcp.Bridge.TcpBridge.OneDataReceiver(OneMetadata md)
2020-09-28 11:40:29|Info|Get_XAGY_WTPM_TrunkPressure:定3800配水间B:100708:SLS-40:1
2020-09-28 11:40:29|Info|One客户端已连接,IP:10.30.2.77:59407
2020-09-28 11:40:29|Info|[1->M]----[408-39.144.5.151:24947]-01 04 00 0A 00 01 11 C8 ----
2020-09-28 11:40:31|Info|[M][39.144.5.151:24947]:01 04 02 05 14 BA 6F
2020-09-28 11:40:31|Info|[M->1][39.144.5.151:24947]:01 04 02 05 14 BA 6F
2020-09-28 11:40:31|Warn|[10.30.2.77:59407] client no longer connected
2020-09-28 11:40:31|Info|Get_XAGY_WII_WaterInjectingInstrument:定4415A-1井:1009006:SLS-40:1
2020-09-28 11:40:31|Info|One客户端已连接,IP:10.30.2.77:59416
2020-09-28 11:40:31|Info|[1->M]----[402-39.144.5.169:33189]-01 03 00 4E 00 0A A5 DA ----
2020-09-28 11:40:31|Info|收到连接[4][4][402]心跳包
2020-09-28 11:40:32|Info|[M][39.144.5.169:33189]:01 03 14 00 04 00 21 00 3C 00 0B D4 0A 00 00 00 00 00 00 00 00 00 00 2E 3E
2020-09-28 11:40:32|Info|[M->1][39.144.5.169:33189]:01 03 14 00 04 00 21 00 3C 00 0B D4 0A 00 00 00 00 00 00 00 00 00 00 2E 3E
2020-09-28 11:40:33|Warn|[10.30.2.77:59416] client no longer connected
2020-09-28 11:40:33|Info|Get_XAGY_WII_WaterInjectingInstrument:定44150-1井:1009007:SLS-40:1
2020-09-28 11:40:33|Info|One客户端已连接,IP:10.30.2.77:59418
2020-09-28 11:40:33|Info|[1->M]----[402-39.144.5.169:33189]-01 03 00 58 00 0A 44 1E ----
2020-09-28 11:40:34|Info|[M][39.144.5.169:33189]:01 03 14 00 04 00 21 00 1C 00 0E A3 F0 00 00 00 00 06 2C 00 00 00 00 05 EC
2020-09-28 11:40:34|Info|[M->1][39.144.5.169:33189]:01 03 14 00 04 00 21 00 1C 00 0E A3 F0 00 00 00 00 06 2C 00 00 00 00 05 EC
2020-09-28 11:40:34|Warn|[10.30.2.77:59418] client no longer connected
2020-09-28 11:40:34|Info|Get_XAGY_WII_WaterInjectingInstrument:定44150-8井:1009008:SLS-40:1
2020-09-28 11:40:34|Info|One客户端已连接,IP:10.30.2.77:59421
2020-09-28 11:40:34|Info|[1->M]----[402-39.144.5.169:33189]-01 03 00 62 00 0A 64 13 ----
2020-09-28 11:40:35|Info|[M][39.144.5.169:33189]:01 03 14 00 04 00 21 00 00 00 0E C1 5A 00 00 00 00 06 40 00 00 00 00 D3 71
2020-09-28 11:40:35|Info|[M->1][39.144.5.169:33189]:01 03 14 00 04 00 21 00 00 00 0E C1 5A 00 00 00 00 06 40 00 00 00 00 D3 71
2020-09-28 11:40:35|Warn|[10.30.2.77:59421] client no longer connected
2020-09-28 11:40:35|Info|Get_XAGY_WII_WaterInjectingInstrument:定44150-7井:1009009:SLS-40:1
2020-09-28 11:40:35|Info|One客户端已连接,IP:10.30.2.77:59423
2020-09-28 11:40:35|Info|[1->M]----[402-39.144.5.169:33189]-01 03 00 6C 00 0A 05 D0 ----
2020-09-28 11:40:37|Info|[M][39.144.5.169:33189]:01 03 14 00 04 00 21 00 20 00 09 CB E5 00 00 00 00 04 CE 00 00 00 00 EF 1D
2020-09-28 11:40:37|Info|[M->1][39.144.5.169:33189]:01 03 14 00 04 00 21 00 20 00 09 CB E5 00 00 00 00 04 CE 00 00 00 00 EF 1D
2020-09-28 11:40:37|Warn|[10.30.2.77:59423] client no longer connected
2020-09-28 11:40:37|Info|Get_XAGY_WII_WaterInjectingInstrument:定3857-4井:1009010:SLS-40:1
2020-09-28 11:40:37|Info|One客户端已连接,IP:10.30.2.77:59427
2020-09-28 11:40:37|Info|[1->M]----[402-39.144.5.169:33189]-01 03 00 76 00 0A 24 17 ----
2020-09-28 11:40:39|Info|[M][39.144.5.169:33189]:01 03 14 00 04 00 15 00 15 00 05 CE C8 00 00 00 00 02 C6 00 00 00 00 20 CF
2020-09-28 11:40:39|Info|[M->1][39.144.5.169:33189]:01 03 14 00 04 00 15 00 15 00 05 CE C8 00 00 00 00 02 C6 00 00 00 00 20 CF
2020-09-28 11:40:39|Warn|[10.30.2.77:59427] client no longer connected
2020-09-28 11:40:39|Info|Get_XAGY_WII_WaterInjectingInstrument:定3861-8井:1009011:SLS-40:1
2020-09-28 11:40:39|Info|One客户端已连接,IP:10.30.2.77:59429
2020-09-28 11:40:39|Info|[1->M]----[402-39.144.5.169:33189]-01 03 00 80 00 0A C4 25 ----
2020-09-28 11:40:40|Info|[M][39.144.5.169:33189]:01 03 14 00 04 00 29 00 4F 00 0B F3 1D 00 00 00 00 06 40 00 00 00 00 A1 B0
2020-09-28 11:40:40|Info|[M->1][39.144.5.169:33189]:01 03 14 00 04 00 29 00 4F 00 0B F3 1D 00 00 00 00 06 40 00 00 00 00 A1 B0
2020-09-28 11:40:40|Warn|[10.30.2.77:59429] client no longer connected
2020-09-28 11:40:40|Info|Get_XAGY_WII_WaterInjectingInstrument:定44109井:1009012:SLS-40:1
2020-09-28 11:40:40|Info|One客户端已连接,IP:10.30.2.77:59432
2020-09-28 11:40:40|Info|[1->M]----[402-39.144.5.169:33189]-01 03 00 8A 00 0A E4 27 ----
2020-09-28 11:40:42|Info|[M][39.144.5.169:33189]:01 03 14 00 04 00 27 00 21 00 09 BE 13 00 00 00 00 00 00 00 00 00 00 F5 10
2020-09-28 11:40:42|Info|[M->1][39.144.5.169:33189]:01 03 14 00 04 00 27 00 21 00 09 BE 13 00 00 00 00 00 00 00 00 00 00 F5 10
2020-09-28 11:40:42|Warn|[10.30.2.77:59432] client no longer connected
2020-09-28 11:40:42|Info|Get_XAGY_WII_WaterInjectingInstrument:定3867-5井:1009013:SLS-40:1
2020-09-28 11:40:42|Info|One客户端已连接,IP:10.30.2.77:59435
2020-09-28 11:40:42|Info|[1->M]----[402-39.144.5.169:33189]-01 03 00 94 00 0A 84 21 ----
2020-09-28 11:40:43|Info|[M][39.144.5.169:33189]:01 03 14 00 20 00 00 00 00 00 00 00 00 00 00 00 00 00 00 00 00 00 00 28 A0
2020-09-28 11:40:43|Info|[M->1][39.144.5.169:33189]:01 03 14 00 20 00 00 00 00 00 00 00 00 00 00 00 00 00 00 00 00 00 00 28 A0
2020-09-28 11:40:43|Warn|[10.30.2.77:59435] client no longer connected
2020-09-28 11:40:43|Info|Get_XAGY_WII_WaterInjectingInstrument:定44150-3井:1009014:SLS-40:1
2020-09-28 11:40:43|Info|One客户端已连接,IP:10.30.2.77:59438
2020-09-28 11:40:43|Info|[1->M]----[402-39.144.5.169:33189]-01 03 00 9E 00 0A A4 23 ----
2020-09-28 11:40:45|Info|[M][39.144.5.169:33189]:01 03 14 00 04 00 22 00 1C 00 07 5D 6B 00 00 00 00 00 00 00 00 00 00 0B 85
2020-09-28 11:40:45|Info|[M->1][39.144.5.169:33189]:01 03 14 00 04 00 22 00 1C 00 07 5D 6B 00 00 00 00 00 00 00 00 00 00 0B 85
2020-09-28 11:40:45|Warn|[10.30.2.77:59438] client no longer connected
2020-09-28 11:40:45|Info|Get_XAGY_WII_WaterInjectingInstrument:备用井:1009015:SLS-40:1
2020-09-28 11:40:45|Info|One客户端已连接,IP:10.30.2.77:59441
2020-09-28 11:40:45|Info|[1->M]----[402-39.144.5.169:33189]-01 03 00 A8 00 0A 44 2D ----
2020-09-28 11:40:47|Info|收到连接[4][4][405]心跳包
2020-09-28 11:40:48|Info|[M][39.144.5.169:33189]:01 03 14 00 04 00 00 00 00 00 00 0A 41 00 00 00 00 00 00 00 00 00 00 1B 72
2020-09-28 11:40:48|Info|[M->1][39.144.5.169:33189]:01 03 14 00 04 00 00 00 00 00 00 0A 41 00 00 00 00 00 00 00 00 00 00 1B 72
2020-09-28 11:40:48|Warn|[10.30.2.77:59441] client no longer connected
2020-09-28 11:40:48|Info|Get_XAGY_WII_WaterInjectingInstrument:定44121-2井:1009016:SLS-40:1
2020-09-28 11:40:48|Info|One客户端已连接,IP:10.30.2.77:59444
2020-09-28 11:40:51|Error|one client excetion 远程主机强迫关闭了一个现有的连接。,    at System.Net.Sockets.Socket.Receive(Byte[] buffer, Int32 offset, Int32 size, SocketFlags socketFlags)
   at System.Net.Sockets.Socket.Receive(Byte[] buffer, SocketFlags socketFlags)
   at YCIOT.ModbusPoll.RtuOverTcp.Bridge.TcpBridge.IsClientConnected(TcpClient client)
   at YCIOT.ModbusPoll.RtuOverTcp.Bridge.TcpBridge.OneDataReceiver(OneMetadata md)
2020-09-28 11:40:51|Info|Get_XAGY_WII_WaterInjectingInstrument:定44121-3井:1009017:SLS-40:1
2020-09-28 11:40:51|Info|One客户端已连接,IP:10.30.2.77:59449
2020-09-28 11:40:54|Error|one client excetion 远程主机强迫关闭了一个现有的连接。,    at System.Net.Sockets.Socket.Receive(Byte[] buffer, Int32 offset, Int32 size, SocketFlags socketFlags)
   at System.Net.Sockets.Socket.Receive(Byte[] buffer, SocketFlags socketFlags)
   at YCIOT.ModbusPoll.RtuOverTcp.Bridge.TcpBridge.IsClientConnected(TcpClient client)
   at YCIOT.ModbusPoll.RtuOverTcp.Bridge.TcpBridge.OneDataReceiver(OneMetadata md)
2020-09-28 11:40:54|Info|Get_XAGY_WII_WaterInjectingInstrument:定44121-1井:1009018:SLS-40:1
2020-09-28 11:40:54|Info|One客户端已连接,IP:10.30.2.77:59453
2020-09-28 11:40:56|Info|收到连接[4][4][407]心跳包
2020-09-28 11:40:57|Error|one client excetion 远程主机强迫关闭了一个现有的连接。,    at System.Net.Sockets.Socket.Receive(Byte[] buffer, Int32 offset, Int32 size, SocketFlags socketFlags)
   at System.Net.Sockets.Socket.Receive(Byte[] buffer, SocketFlags socketFlags)
   at YCIOT.ModbusPoll.RtuOverTcp.Bridge.TcpBridge.IsClientConnected(TcpClient client)
   at YCIOT.ModbusPoll.RtuOverTcp.Bridge.TcpBridge.OneDataReceiver(OneMetadata md)
2020-09-28 11:40:57|Info|Get_XAGY_WII_WaterInjectingInstrument:定44127-2井:1009019:SLS-40:1
2020-09-28 11:40:57|Info|One客户端已连接,IP:10.30.2.77:59458
2020-09-28 11:41:00|Error|one client excetion 远程主机强迫关闭了一个现有的连接。,    at System.Net.Sockets.Socket.Receive(Byte[] buffer, Int32 offset, Int32 size, SocketFlags socketFlags)
   at System.Net.Sockets.Socket.Receive(Byte[] buffer, SocketFlags socketFlags)
   at YCIOT.ModbusPoll.RtuOverTcp.Bridge.TcpBridge.IsClientConnected(TcpClient client)
   at YCIOT.ModbusPoll.RtuOverTcp.Bridge.TcpBridge.OneDataReceiver(OneMetadata md)
2020-09-28 11:41:00|Info|Get_XAGY_WII_WaterInjectingInstrument:备用井:1009020:SLS-40:1
2020-09-28 11:41:00|Info|One客户端已连接,IP:10.30.2.77:59462
2020-09-28 11:41:02|Info|收到连接[4][4][408]心跳包
2020-09-28 11:41:03|Error|one client excetion 远程主机强迫关闭了一个现有的连接。,    at System.Net.Sockets.Socket.Receive(Byte[] buffer, Int32 offset, Int32 size, SocketFlags socketFlags)
   at System.Net.Sockets.Socket.Receive(Byte[] buffer, SocketFlags socketFlags)
   at YCIOT.ModbusPoll.RtuOverTcp.Bridge.TcpBridge.IsClientConnected(TcpClient client)
   at YCIOT.ModbusPoll.RtuOverTcp.Bridge.TcpBridge.OneDataReceiver(OneMetadata md)
2020-09-28 11:41:03|Info|Get_XAGY_WII_WaterInjectingInstrument:定44127-3井:1009021:SLS-40:1
2020-09-28 11:41:03|Info|One客户端已连接,IP:10.30.2.77:59465
2020-09-28 11:41:06|Error|one client excetion 远程主机强迫关闭了一个现有的连接。,    at System.Net.Sockets.Socket.Receive(Byte[] buffer, Int32 offset, Int32 size, SocketFlags socketFlags)
   at System.Net.Sockets.Socket.Receive(Byte[] buffer, SocketFlags socketFlags)
   at YCIOT.ModbusPoll.RtuOverTcp.Bridge.TcpBridge.IsClientConnected(TcpClient client)
   at YCIOT.ModbusPoll.RtuOverTcp.Bridge.TcpBridge.OneDataReceiver(OneMetadata md)
2020-09-28 11:41:06|Info|Get_XAGY_WII_WaterInjectingInstrument:备用井:1009022:SLS-40:1
2020-09-28 11:41:06|Info|One客户端已连接,IP:10.30.2.77:59469
2020-09-28 11:41:09|Error|one client excetion 远程主机强迫关闭了一个现有的连接。,    at System.Net.Sockets.Socket.Receive(Byte[] buffer, Int32 offset, Int32 size, SocketFlags socketFlags)
   at System.Net.Sockets.Socket.Receive(Byte[] buffer, SocketFlags socketFlags)
   at YCIOT.ModbusPoll.RtuOverTcp.Bridge.TcpBridge.IsClientConnected(TcpClient client)
   at YCIOT.ModbusPoll.RtuOverTcp.Bridge.TcpBridge.OneDataReceiver(OneMetadata md)
2020-09-28 11:41:09|Info|Get_XAGY_WII_WaterInjectingInstrument:定44125-2井:1009023:SLS-40:1
2020-09-28 11:41:09|Info|One客户端已连接,IP:10.30.2.77:59472
2020-09-28 11:41:12|Error|one client excetion 远程主机强迫关闭了一个现有的连接。,    at System.Net.Sockets.Socket.Receive(Byte[] buffer, Int32 offset, Int32 size, SocketFlags socketFlags)
   at System.Net.Sockets.Socket.Receive(Byte[] buffer, SocketFlags socketFlags)
   at YCIOT.ModbusPoll.RtuOverTcp.Bridge.TcpBridge.IsClientConnected(TcpClient client)
   at YCIOT.ModbusPoll.RtuOverTcp.Bridge.TcpBridge.OneDataReceiver(OneMetadata md)
2020-09-28 11:41:12|Info|Get_XAGY_WII_WaterInjectingInstrument:定44123-1井:1009024:SLS-40:1
2020-09-28 11:41:12|Info|One客户端已连接,IP:10.30.2.77:59475
2020-09-28 11:41:15|Error|one client excetion 远程主机强迫关闭了一个现有的连接。,    at System.Net.Sockets.Socket.Receive(Byte[] buffer, Int32 offset, Int32 size, SocketFlags socketFlags)
   at System.Net.Sockets.Socket.Receive(Byte[] buffer, SocketFlags socketFlags)
   at YCIOT.ModbusPoll.RtuOverTcp.Bridge.TcpBridge.IsClientConnected(TcpClient client)
   at YCIOT.ModbusPoll.RtuOverTcp.Bridge.TcpBridge.OneDataReceiver(OneMetadata md)
2020-09-28 11:41:15|Info|Get_XAGY_WII_WaterInjectingInstrument:备用井:1009025:SLS-40:1
2020-09-28 11:41:15|Info|One客户端已连接,IP:10.30.2.77:59478
2020-09-28 11:41:17|Info|收到连接[4][4][405]心跳包
2020-09-28 11:41:18|Info|收到连接[4][4][402]心跳包
2020-09-28 11:41:18|Error|one client excetion 远程主机强迫关闭了一个现有的连接。,    at System.Net.Sockets.Socket.Receive(Byte[] buffer, Int32 offset, Int32 size, SocketFlags socketFlags)
   at System.Net.Sockets.Socket.Receive(Byte[] buffer, SocketFlags socketFlags)
   at YCIOT.ModbusPoll.RtuOverTcp.Bridge.TcpBridge.IsClientConnected(TcpClient client)
   at YCIOT.ModbusPoll.RtuOverTcp.Bridge.TcpBridge.OneDataReceiver(OneMetadata md)
2020-09-28 11:41:18|Info|Get_XAGY_WII_WaterInjectingInstrument:定44123-2井:1009026:SLS-40:1
2020-09-28 11:41:18|Info|One客户端已连接,IP:10.30.2.77:59481
2020-09-28 11:41:21|Error|one client excetion 远程主机强迫关闭了一个现有的连接。,    at System.Net.Sockets.Socket.Receive(Byte[] buffer, Int32 offset, Int32 size, SocketFlags socketFlags)
   at System.Net.Sockets.Socket.Receive(Byte[] buffer, SocketFlags socketFlags)
   at YCIOT.ModbusPoll.RtuOverTcp.Bridge.TcpBridge.IsClientConnected(TcpClient client)
   at YCIOT.ModbusPoll.RtuOverTcp.Bridge.TcpBridge.OneDataReceiver(OneMetadata md)
2020-09-28 11:41:21|Info|Get_XAGY_WII_WaterInjectingInstrument:备用井:1009027:SLS-40:1
2020-09-28 11:41:21|Info|One客户端已连接,IP:10.30.2.77:59485
2020-09-28 11:41:24|Error|one client excetion 远程主机强迫关闭了一个现有的连接。,    at System.Net.Sockets.Socket.Receive(Byte[] buffer, Int32 offset, Int32 size, SocketFlags socketFlags)
   at System.Net.Sockets.Socket.Receive(Byte[] buffer, SocketFlags socketFlags)
   at YCIOT.ModbusPoll.RtuOverTcp.Bridge.TcpBridge.IsClientConnected(TcpClient client)
   at YCIOT.ModbusPoll.RtuOverTcp.Bridge.TcpBridge.OneDataReceiver(OneMetadata md)
2020-09-28 11:41:24|Info|Get_XAGY_WII_WaterInjectingInstrument:定44127-1井:1009028:SLS-40:1
2020-09-28 11:41:24|Info|One客户端已连接,IP:10.30.2.77:59490
2020-09-28 11:41:26|Info|收到连接[4][4][407]心跳包
2020-09-28 11:41:27|Error|one client excetion 远程主机强迫关闭了一个现有的连接。,    at System.Net.Sockets.Socket.Receive(Byte[] buffer, Int32 offset, Int32 size, SocketFlags socketFlags)
   at System.Net.Sockets.Socket.Receive(Byte[] buffer, SocketFlags socketFlags)
   at YCIOT.ModbusPoll.RtuOverTcp.Bridge.TcpBridge.IsClientConnected(TcpClient client)
   at YCIOT.ModbusPoll.RtuOverTcp.Bridge.TcpBridge.OneDataReceiver(OneMetadata md)
2020-09-28 11:41:27|Info|Get_XAGY_WII_WaterInjectingInstrument:定44088-5井:1009029:SLS-40:1
2020-09-28 11:41:27|Info|One客户端已连接,IP:10.30.2.77:59494
2020-09-28 11:41:27|Info|[1->M]----[405-117.132.198.60:49014]-01 03 00 4E 00 0A A5 DA ----
2020-09-28 11:41:29|Info|[M][117.132.198.60:49014]:01 03 14 00 04 00 2E 00 2E 00 03 05 85 00 00 00 00 06 18 00 00 00 00 10 47
2020-09-28 11:41:29|Info|[M->1][117.132.198.60:49014]:01 03 14 00 04 00 2E 00 2E 00 03 05 85 00 00 00 00 06 18 00 00 00 00 10 47
2020-09-28 11:41:29|Warn|[10.30.2.77:59494] client no longer connected
2020-09-28 11:41:29|Info|Get_XAGY_WII_WaterInjectingInstrument:定44088-3井:1009030:SLS-40:1
2020-09-28 11:41:29|Info|One客户端已连接,IP:10.30.2.77:59497
2020-09-28 11:41:29|Info|[1->M]----[405-117.132.198.60:49014]-01 03 00 58 00 0A 44 1E ----
2020-09-28 11:41:31|Info|[M][117.132.198.60:49014]:01 03 14 00 04 00 1E 00 00 00 00 8E 52 00 00 00 00 06 EA 00 00 00 00 C3 50
2020-09-28 11:41:31|Info|[M->1][117.132.198.60:49014]:01 03 14 00 04 00 1E 00 00 00 00 8E 52 00 00 00 00 06 EA 00 00 00 00 C3 50
2020-09-28 11:41:31|Warn|[10.30.2.77:59497] client no longer connected
2020-09-28 11:41:31|Info|Get_XAGY_WII_WaterInjectingInstrument:备用井:1009031:SLS-40:1
2020-09-28 11:41:31|Info|One客户端已连接,IP:10.30.2.77:59500
2020-09-28 11:41:31|Info|[1->M]----[405-117.132.198.60:49014]-01 03 00 62 00 0A 64 13 ----
2020-09-28 11:41:32|Info|收到连接[4][4][408]心跳包
2020-09-28 11:41:33|Info|[M][117.132.198.60:49014]:01 03 14 00 04 00 1E 00 00 00 00 00 15 00 00 00 00 00 00 00 00 00 00 7E FD
2020-09-28 11:41:33|Info|[M->1][117.132.198.60:49014]:01 03 14 00 04 00 1E 00 00 00 00 00 15 00 00 00 00 00 00 00 00 00 00 7E FD
2020-09-28 11:41:33|Warn|[10.30.2.77:59500] client no longer connected
2020-09-28 11:41:33|Info|Get_XAGY_WII_WaterInjectingInstrument:定44088-1井:1009032:SLS-40:1
2020-09-28 11:41:33|Info|One客户端已连接,IP:10.30.2.77:59502
2020-09-28 11:41:33|Info|[1->M]----[405-117.132.198.60:49014]-01 03 00 6C 00 0A 05 D0 ----
2020-09-28 11:41:34|Info|[M][117.132.198.60:49014]:01 03 14 00 04 00 19 00 00 00 01 1A 55 00 00 00 00 00 00 00 00 00 00 42 6B
2020-09-28 11:41:34|Info|[M->1][117.132.198.60:49014]:01 03 14 00 04 00 19 00 00 00 01 1A 55 00 00 00 00 00 00 00 00 00 00 42 6B
2020-09-28 11:41:34|Warn|[10.30.2.77:59502] client no longer connected
2020-09-28 11:41:34|Info|Get_XAGY_WII_WaterInjectingInstrument:定44133-1井:1009033:SLS-40:1
2020-09-28 11:41:34|Info|One客户端已连接,IP:10.30.2.77:59504
2020-09-28 11:41:34|Info|[1->M]----[405-117.132.198.60:49014]-01 03 00 76 00 0A 24 17 ----
2020-09-28 11:41:35|Info|[M][117.132.198.60:49014]:01 03 14 00 04 00 0D 00 0D 00 00 B3 09 00 00 00 00 06 F4 00 00 00 00 D2 D4
2020-09-28 11:41:35|Info|[M->1][117.132.198.60:49014]:01 03 14 00 04 00 0D 00 0D 00 00 B3 09 00 00 00 00 06 F4 00 00 00 00 D2 D4
2020-09-28 11:41:35|Warn|[10.30.2.77:59504] client no longer connected
2020-09-28 11:41:35|Info|Get_XAGY_WII_WaterInjectingInstrument:定3864-4井:1009034:SLS-40:1
2020-09-28 11:41:35|Info|One客户端已连接,IP:10.30.2.77:59506
2020-09-28 11:41:35|Info|[1->M]----[405-117.132.198.60:49014]-01 03 00 80 00 0A C4 25 ----
2020-09-28 11:41:36|Info|[M][117.132.198.60:49014]:01 03 14 00 04 00 15 00 00 00 01 34 D2 00 00 00 00 00 50 00 00 00 00 9C BA
2020-09-28 11:41:36|Info|[M->1][117.132.198.60:49014]:01 03 14 00 04 00 15 00 00 00 01 34 D2 00 00 00 00 00 50 00 00 00 00 9C BA
2020-09-28 11:41:36|Warn|[10.30.2.77:59506] client no longer connected
2020-09-28 11:41:36|Info|Get_XAGY_WII_WaterInjectingInstrument:定44131-2井:1009035:SLS-40:1
2020-09-28 11:41:36|Info|One客户端已连接,IP:10.30.2.77:59507
2020-09-28 11:41:36|Info|[1->M]----[405-117.132.198.60:49014]-01 03 00 8A 00 0A E4 27 ----
2020-09-28 11:41:37|Info|[M][117.132.198.60:49014]:01 03 14 00 04 00 0D 00 00 00 00 84 CC 00 00 00 00 06 F4 00 00 00 00 47 95
2020-09-28 11:41:37|Info|[M->1][117.132.198.60:49014]:01 03 14 00 04 00 0D 00 00 00 00 84 CC 00 00 00 00 06 F4 00 00 00 00 47 95
2020-09-28 11:41:37|Warn|[10.30.2.77:59507] client no longer connected
2020-09-28 11:41:37|Info|Get_XAGY_WII_WaterInjectingInstrument:定44131-1井:1009036:SLS-40:1
2020-09-28 11:41:37|Info|One客户端已连接,IP:10.30.2.77:59509
2020-09-28 11:41:37|Info|[1->M]----[405-117.132.198.60:49014]-01 03 00 94 00 0A 84 21 ----
2020-09-28 11:41:39|Info|[M][117.132.198.60:49014]:01 03 14 00 04 00 0D 00 0C 00 00 E8 E0 00 00 00 00 06 EA 00 00 00 00 E7 92
2020-09-28 11:41:39|Info|[M->1][117.132.198.60:49014]:01 03 14 00 04 00 0D 00 0C 00 00 E8 E0 00 00 00 00 06 EA 00 00 00 00 E7 92
2020-09-28 11:41:39|Warn|[10.30.2.77:59509] client no longer connected
2020-09-28 11:41:39|Info|Get_XAGY_WII_WaterInjectingInstrument:定44137-4井:1009037:SLS-40:1
2020-09-28 11:41:39|Info|One客户端已连接,IP:10.30.2.77:59511
2020-09-28 11:41:42|Error|one client excetion 远程主机强迫关闭了一个现有的连接。,    at System.Net.Sockets.Socket.Receive(Byte[] buffer, Int32 offset, Int32 size, SocketFlags socketFlags)
   at System.Net.Sockets.Socket.Receive(Byte[] buffer, SocketFlags socketFlags)
   at YCIOT.ModbusPoll.RtuOverTcp.Bridge.TcpBridge.IsClientConnected(TcpClient client)
   at YCIOT.ModbusPoll.RtuOverTcp.Bridge.TcpBridge.OneDataReceiver(OneMetadata md)
2020-09-28 11:41:42|Info|Get_XAGY_WII_WaterInjectingInstrument:定44137-2井:1009038:SLS-40:1
2020-09-28 11:41:42|Info|One客户端已连接,IP:10.30.2.77:59516
2020-09-28 11:41:45|Error|one client excetion 远程主机强迫关闭了一个现有的连接。,    at System.Net.Sockets.Socket.Receive(Byte[] buffer, Int32 offset, Int32 size, SocketFlags socketFlags)
   at System.Net.Sockets.Socket.Receive(Byte[] buffer, SocketFlags socketFlags)
   at YCIOT.ModbusPoll.RtuOverTcp.Bridge.TcpBridge.IsClientConnected(TcpClient client)
   at YCIOT.ModbusPoll.RtuOverTcp.Bridge.TcpBridge.OneDataReceiver(OneMetadata md)
2020-09-28 11:41:45|Info|Get_XAGY_WII_WaterInjectingInstrument:备用井:1009039:SLS-40:1
2020-09-28 11:41:45|Info|One客户端已连接,IP:10.30.2.77:59519
2020-09-28 11:41:47|Info|收到连接[4][4][402]心跳包
2020-09-28 11:41:48|Error|one client excetion 远程主机强迫关闭了一个现有的连接。,    at System.Net.Sockets.Socket.Receive(Byte[] buffer, Int32 offset, Int32 size, SocketFlags socketFlags)
   at System.Net.Sockets.Socket.Receive(Byte[] buffer, SocketFlags socketFlags)
   at YCIOT.ModbusPoll.RtuOverTcp.Bridge.TcpBridge.IsClientConnected(TcpClient client)
   at YCIOT.ModbusPoll.RtuOverTcp.Bridge.TcpBridge.OneDataReceiver(OneMetadata md)
2020-09-28 11:41:48|Info|Get_XAGY_WII_WaterInjectingInstrument:备用井:1009040:SLS-40:1
2020-09-28 11:41:48|Info|One客户端已连接,IP:10.30.2.77:59523
2020-09-28 11:41:51|Error|one client excetion 远程主机强迫关闭了一个现有的连接。,    at System.Net.Sockets.Socket.Receive(Byte[] buffer, Int32 offset, Int32 size, SocketFlags socketFlags)
   at System.Net.Sockets.Socket.Receive(Byte[] buffer, SocketFlags socketFlags)
   at YCIOT.ModbusPoll.RtuOverTcp.Bridge.TcpBridge.IsClientConnected(TcpClient client)
   at YCIOT.ModbusPoll.RtuOverTcp.Bridge.TcpBridge.OneDataReceiver(OneMetadata md)
2020-09-28 11:41:51|Info|Get_XAGY_WII_WaterInjectingInstrument:定3800-1井:1009041:SLS-40:1
2020-09-28 11:41:51|Info|One客户端已连接,IP:10.30.2.77:59528
2020-09-28 11:41:51|Info|[1->M]----[407-221.178.124.151:32426]-01 03 00 4E 00 0A A5 DA ----
2020-09-28 11:41:53|Info|[M][221.178.124.151:32426]:01 03 14 00 04 00 15 00 0F 00 01 30 B6 00 00 00 00 04 F6 00 00 00 00 C0 DD
2020-09-28 11:41:53|Info|[M->1][221.178.124.151:32426]:01 03 14 00 04 00 15 00 0F 00 01 30 B6 00 00 00 00 04 F6 00 00 00 00 C0 DD
2020-09-28 11:41:53|Warn|[10.30.2.77:59528] client no longer connected
2020-09-28 11:41:53|Info|Get_XAGY_WII_WaterInjectingInstrument:定3800-2井:1009042:SLS-40:1
2020-09-28 11:41:53|Info|One客户端已连接,IP:10.30.2.77:59531
2020-09-28 11:41:53|Info|[1->M]----[407-221.178.124.151:32426]-01 03 00 58 00 0A 44 1E ----
2020-09-28 11:41:54|Info|[M][221.178.124.151:32426]:01 03 14 00 04 00 14 00 19 00 01 80 61 00 00 00 00 04 D8 00 00 00 00 1F CC
2020-09-28 11:41:54|Info|[M->1][221.178.124.151:32426]:01 03 14 00 04 00 14 00 19 00 01 80 61 00 00 00 00 04 D8 00 00 00 00 1F CC
2020-09-28 11:41:54|Warn|[10.30.2.77:59531] client no longer connected
2020-09-28 11:41:54|Info|Get_XAGY_WII_WaterInjectingInstrument:定3844-3井:1009043:SLS-40:1
2020-09-28 11:41:54|Info|One客户端已连接,IP:10.30.2.77:59532
2020-09-28 11:41:54|Info|[1->M]----[408-39.144.5.151:24947]-01 03 00 4E 00 0A A5 DA ----
2020-09-28 11:41:55|Info|[M][39.144.5.151:24947]:01 03 14 00 04 00 16 00 16 00 00 D8 8D 00 00 00 00 04 F6 00 00 00 00 52 A3
2020-09-28 11:41:55|Info|[M->1][39.144.5.151:24947]:01 03 14 00 04 00 16 00 16 00 00 D8 8D 00 00 00 00 04 F6 00 00 00 00 52 A3
2020-09-28 11:41:55|Warn|[10.30.2.77:59532] client no longer connected
2020-09-28 11:41:55|Info|Get_XAGY_WII_WaterInjectingInstrument:定3851-1井:1009044:SLS-40:1
2020-09-28 11:41:55|Info|One客户端已连接,IP:10.30.2.77:59536
2020-09-28 11:41:55|Info|[1->M]----[408-39.144.5.151:24947]-01 03 00 58 00 0A 44 1E ----
2020-09-28 11:41:57|Info|[M][39.144.5.151:24947]:01 03 14 00 04 00 2A 00 2A 00 02 AD 5D 00 00 00 00 00 00 00 00 00 00 94 DD
2020-09-28 11:41:57|Info|[M->1][39.144.5.151:24947]:01 03 14 00 04 00 2A 00 2A 00 02 AD 5D 00 00 00 00 00 00 00 00 00 00 94 DD
2020-09-28 11:41:57|Warn|[10.30.2.77:59536] client no longer connected
2020-09-28 11:41:57|Info|Get_XAGY_WII_WaterInjectingInstrument:定3844-7井:1009045:SLS-40:1
2020-09-28 11:41:57|Info|One客户端已连接,IP:10.30.2.77:59538
2020-09-28 11:41:57|Info|[1->M]----[408-39.144.5.151:24947]-01 03 00 62 00 0A 64 13 ----
2020-09-28 11:41:58|Info|[M][39.144.5.151:24947]:01 03 14 00 04 00 2A 00 2A 00 01 2E 14 00 00 00 00 05 00 00 00 00 00 EC 6C
2020-09-28 11:41:58|Info|[M->1][39.144.5.151:24947]:01 03 14 00 04 00 2A 00 2A 00 01 2E 14 00 00 00 00 05 00 00 00 00 00 EC 6C
2020-09-28 11:41:58|Warn|[10.30.2.77:59538] client no longer connected
2020-09-28 11:41:58|Info|Get_XAGY_WII_WaterInjectingInstrument:定3852-1井:1009046:SLS-40:1
2020-09-28 11:41:58|Info|One客户端已连接,IP:10.30.2.77:59540
2020-09-28 11:41:58|Info|[1->M]----[408-39.144.5.151:24947]-01 03 00 6C 00 0A 05 D0 ----
2020-09-28 11:41:59|Info|[M][39.144.5.151:24947]:01 03 14 00 04 00 19 00 1C 00 01 65 2D 00 00 00 00 04 C4 00 00 00 00 7B FD
2020-09-28 11:41:59|Info|[M->1][39.144.5.151:24947]:01 03 14 00 04 00 19 00 1C 00 01 65 2D 00 00 00 00 04 C4 00 00 00 00 7B FD
2020-09-28 11:41:59|Warn|[10.30.2.77:59540] client no longer connected
2020-09-28 11:41:59|Info|Get_XAGY_WII_WaterInjectingInstrument:定3843-2井:1009047:SLS-40:1
2020-09-28 11:41:59|Info|One客户端已连接,IP:10.30.2.77:59542
2020-09-28 11:41:59|Info|[1->M]----[408-39.144.5.151:24947]-01 03 00 76 00 0A 24 17 ----
2020-09-28 11:42:00|Info|[M][39.144.5.151:24947]:01 03 14 00 04 00 2A 00 2A 00 02 65 0C 00 00 00 00 04 F6 00 00 00 00 BA 2F
2020-09-28 11:42:00|Info|[M->1][39.144.5.151:24947]:01 03 14 00 04 00 2A 00 2A 00 02 65 0C 00 00 00 00 04 F6 00 00 00 00 BA 2F
2020-09-28 11:42:00|Warn|[10.30.2.77:59542] client no longer connected
2020-09-28 11:42:00|Info|Get_XAGY_WII_WaterInjectingInstrument:定3841-2井:1009048:SLS-40:1
2020-09-28 11:42:00|Info|One客户端已连接,IP:10.30.2.77:59552
2020-09-28 11:42:00|Info|[1->M]----[408-39.144.5.151:24947]-01 03 00 80 00 0A C4 25 ----
2020-09-28 11:42:01|Info|[M][39.144.5.151:24947]:01 03 14 00 04 00 2A 00 31 00 02 D3 B6 00 00 00 00 04 74 00 00 00 00 A4 16
2020-09-28 11:42:01|Info|[M->1][39.144.5.151:24947]:01 03 14 00 04 00 2A 00 31 00 02 D3 B6 00 00 00 00 04 74 00 00 00 00 A4 16
2020-09-28 11:42:01|Warn|[10.30.2.77:59552] client no longer connected
2020-09-28 11:42:01|Info|Get_XAGY_WII_WaterInjectingInstrument:定3841-5井:1009049:SLS-40:1
2020-09-28 11:42:01|Info|One客户端已连接,IP:10.30.2.77:59562
2020-09-28 11:42:01|Info|[1->M]----[408-39.144.5.151:24947]-01 03 00 8A 00 0A E4 27 ----
2020-09-28 11:42:03|Info|[M][39.144.5.151:24947]:01 03 14 00 04 00 2A 00 29 00 01 19 4E 00 00 00 00 05 0A 00 00 00 00 A2 3E
2020-09-28 11:42:03|Info|[M->1][39.144.5.151:24947]:01 03 14 00 04 00 2A 00 29 00 01 19 4E 00 00 00 00 05 0A 00 00 00 00 A2 3E
2020-09-28 11:42:03|Warn|[10.30.2.77:59562] client no longer connected
2020-09-28 11:42:03|Info|Get_XAGY_WII_WaterInjectingInstrument:定3841-3井:1009050:SLS-40:1
2020-09-28 11:42:03|Info|One客户端已连接,IP:10.30.2.77:59577
2020-09-28 11:42:03|Info|[1->M]----[408-39.144.5.151:24947]-01 03 00 94 00 0A 84 21 ----
2020-09-28 11:42:04|Info|[M][39.144.5.151:24947]:01 03 14 00 04 00 42 00 48 00 04 61 A1 00 00 00 00 04 7E 00 00 00 00 D6 62
2020-09-28 11:42:04|Info|[M->1][39.144.5.151:24947]:01 03 14 00 04 00 42 00 48 00 04 61 A1 00 00 00 00 04 7E 00 00 00 00 D6 62
2020-09-28 11:42:04|Warn|[10.30.2.77:59577] client no longer connected
2020-09-28 11:42:04|Info|Get_XAGY_WTPM_TrunkPressure:定38017配水间:100701:SLS-40:1
2020-09-28 11:42:04|Info|One客户端已连接,IP:10.30.2.77:59587
2020-09-28 11:42:07|Error|one client excetion 远程主机强迫关闭了一个现有的连接。,    at System.Net.Sockets.Socket.Receive(Byte[] buffer, Int32 offset, Int32 size, SocketFlags socketFlags)
   at System.Net.Sockets.Socket.Receive(Byte[] buffer, SocketFlags socketFlags)
   at YCIOT.ModbusPoll.RtuOverTcp.Bridge.TcpBridge.IsClientConnected(TcpClient client)
   at YCIOT.ModbusPoll.RtuOverTcp.Bridge.TcpBridge.OneDataReceiver(OneMetadata md)
2020-09-28 11:42:07|Info|Get_XAGY_WTPM_TrunkPressure:定44150配水间:100702:SLS-40:1
2020-09-28 11:42:07|Info|One客户端已连接,IP:10.30.2.77:59593
2020-09-28 11:42:07|Info|[1->M]----[402-39.144.5.169:33189]-01 04 00 0A 00 01 11 C8 ----
2020-09-28 11:42:09|Info|[M][39.144.5.169:33189]:01 04 02 00 00 B9 30
2020-09-28 11:42:09|Info|[M->1][39.144.5.169:33189]:01 04 02 00 00 B9 30
2020-09-28 11:42:09|Info|收到连接[4][4][405]心跳包
2020-09-28 11:42:09|Warn|[10.30.2.77:59593] client no longer connected
2020-09-28 11:42:09|Info|Get_XAGY_WTPM_TrunkPressure:定44125配水间A:100703:SLS-40:1
2020-09-28 11:42:09|Info|One客户端已连接,IP:10.30.2.77:59608
2020-09-28 11:42:12|Error|one client excetion 远程主机强迫关闭了一个现有的连接。,    at System.Net.Sockets.Socket.Receive(Byte[] buffer, Int32 offset, Int32 size, SocketFlags socketFlags)
   at System.Net.Sockets.Socket.Receive(Byte[] buffer, SocketFlags socketFlags)
   at YCIOT.ModbusPoll.RtuOverTcp.Bridge.TcpBridge.IsClientConnected(TcpClient client)
   at YCIOT.ModbusPoll.RtuOverTcp.Bridge.TcpBridge.OneDataReceiver(OneMetadata md)
2020-09-28 11:42:12|Info|Get_XAGY_WII_WaterInjectingInstrument:定3844-3井:1009001:SLS-40:1
2020-09-28 11:42:12|Info|One客户端已连接,IP:10.30.2.77:59621
2020-09-28 11:42:15|Error|one client excetion 远程主机强迫关闭了一个现有的连接。,    at System.Net.Sockets.Socket.Receive(Byte[] buffer, Int32 offset, Int32 size, SocketFlags socketFlags)
   at System.Net.Sockets.Socket.Receive(Byte[] buffer, SocketFlags socketFlags)
   at YCIOT.ModbusPoll.RtuOverTcp.Bridge.TcpBridge.IsClientConnected(TcpClient client)
   at YCIOT.ModbusPoll.RtuOverTcp.Bridge.TcpBridge.OneDataReceiver(OneMetadata md)
2020-09-28 11:42:15|Info|Get_XAGY_WTPM_TrunkPressure:定44125配水间B:100704:SLS-40:1
2020-09-28 11:42:15|Info|One客户端已连接,IP:10.30.2.77:59641
2020-09-28 11:42:19|Error|one client excetion 远程主机强迫关闭了一个现有的连接。,    at System.Net.Sockets.Socket.Receive(Byte[] buffer, Int32 offset, Int32 size, SocketFlags socketFlags)
   at System.Net.Sockets.Socket.Receive(Byte[] buffer, SocketFlags socketFlags)
   at YCIOT.ModbusPoll.RtuOverTcp.Bridge.TcpBridge.IsClientConnected(TcpClient client)
   at YCIOT.ModbusPoll.RtuOverTcp.Bridge.TcpBridge.OneDataReceiver(OneMetadata md)
2020-09-28 11:42:19|Info|Get_XAGY_WII_WaterInjectingInstrument:定38019-2井:1009002:SLS-40:1
2020-09-28 11:42:19|Info|One客户端已连接,IP:10.30.2.77:59645
2020-09-28 11:42:22|Error|one client excetion 远程主机强迫关闭了一个现有的连接。,    at System.Net.Sockets.Socket.Receive(Byte[] buffer, Int32 offset, Int32 size, SocketFlags socketFlags)
   at System.Net.Sockets.Socket.Receive(Byte[] buffer, SocketFlags socketFlags)
   at YCIOT.ModbusPoll.RtuOverTcp.Bridge.TcpBridge.IsClientConnected(TcpClient client)
   at YCIOT.ModbusPoll.RtuOverTcp.Bridge.TcpBridge.OneDataReceiver(OneMetadata md)
2020-09-28 11:42:22|Info|Get_XAGY_WTPM_TrunkPressure:定44088配水间:100705:SLS-40:1
2020-09-28 11:42:22|Info|One客户端已连接,IP:10.30.2.77:59649
2020-09-28 11:42:22|Info|[1->M]----[405-117.132.198.60:49014]-01 04 00 0A 00 01 11 C8 ----
2020-09-28 11:42:24|Info|收到连接[4][4][407]心跳包
2020-09-28 11:42:25|Error|one client excetion 远程主机强迫关闭了一个现有的连接。,    at System.Net.Sockets.Socket.Receive(Byte[] buffer, Int32 offset, Int32 size, SocketFlags socketFlags)
   at System.Net.Sockets.Socket.Receive(Byte[] buffer, SocketFlags socketFlags)
   at YCIOT.ModbusPoll.RtuOverTcp.Bridge.TcpBridge.IsClientConnected(TcpClient client)
   at YCIOT.ModbusPoll.RtuOverTcp.Bridge.TcpBridge.OneDataReceiver(OneMetadata md)
2020-09-28 11:42:25|Info|Get_XAGY_WII_WaterInjectingInstrument:定3853A-7井:1009003:SLS-40:1
2020-09-28 11:42:25|Info|One客户端已连接,IP:10.30.2.77:59652
2020-09-28 11:42:25|Info|[M][117.132.198.60:49014]:01 04 02 06 F7 FB 16
2020-09-28 11:42:25|Warn|[M->1] [3][20],01 04 02 06 F7 FB 16
2020-09-28 11:42:28|Error|one client excetion 远程主机强迫关闭了一个现有的连接。,    at System.Net.Sockets.Socket.Receive(Byte[] buffer, Int32 offset, Int32 size, SocketFlags socketFlags)
   at System.Net.Sockets.Socket.Receive(Byte[] buffer, SocketFlags socketFlags)
   at YCIOT.ModbusPoll.RtuOverTcp.Bridge.TcpBridge.IsClientConnected(TcpClient client)
   at YCIOT.ModbusPoll.RtuOverTcp.Bridge.TcpBridge.OneDataReceiver(OneMetadata md)
2020-09-28 11:42:28|Info|Get_XAGY_WTPM_TrunkPressure:定44137配水间:100706:SLS-40:1
2020-09-28 11:42:28|Info|One客户端已连接,IP:10.30.2.77:59655
2020-09-28 11:42:31|Error|one client excetion 远程主机强迫关闭了一个现有的连接。,    at System.Net.Sockets.Socket.Receive(Byte[] buffer, Int32 offset, Int32 size, SocketFlags socketFlags)
   at System.Net.Sockets.Socket.Receive(Byte[] buffer, SocketFlags socketFlags)
   at YCIOT.ModbusPoll.RtuOverTcp.Bridge.TcpBridge.IsClientConnected(TcpClient client)
   at YCIOT.ModbusPoll.RtuOverTcp.Bridge.TcpBridge.OneDataReceiver(OneMetadata md)
2020-09-28 11:42:31|Info|Get_XAGY_WII_WaterInjectingInstrument:定3853A-6井:1009004:SLS-40:1
2020-09-28 11:42:31|Info|One客户端已连接,IP:10.30.2.77:59658
2020-09-28 11:42:34|Error|one client excetion 远程主机强迫关闭了一个现有的连接。,    at System.Net.Sockets.Socket.Receive(Byte[] buffer, Int32 offset, Int32 size, SocketFlags socketFlags)
   at System.Net.Sockets.Socket.Receive(Byte[] buffer, SocketFlags socketFlags)
   at YCIOT.ModbusPoll.RtuOverTcp.Bridge.TcpBridge.IsClientConnected(TcpClient client)
   at YCIOT.ModbusPoll.RtuOverTcp.Bridge.TcpBridge.OneDataReceiver(OneMetadata md)
2020-09-28 11:42:34|Info|Get_XAGY_WTPM_TrunkPressure:定3800配水间A:100707:SLS-40:1
2020-09-28 11:42:34|Info|One客户端已连接,IP:10.30.2.77:59662
2020-09-28 11:42:34|Info|[1->M]----[407-221.178.124.151:32426]-01 04 00 0A 00 01 11 C8 ----
2020-09-28 11:42:35|Info|收到连接[4][4][408]心跳包
2020-09-28 11:42:35|Info|[M][221.178.124.151:32426]:01 04 02 04 C7 FA 62
2020-09-28 11:42:35|Info|[M->1][221.178.124.151:32426]:01 04 02 04 C7 FA 62
2020-09-28 11:42:35|Warn|[10.30.2.77:59662] client no longer connected
2020-09-28 11:42:35|Info|Get_XAGY_WII_WaterInjectingInstrument:定3853A-1井:1009005:SLS-40:1
2020-09-28 11:42:35|Info|One客户端已连接,IP:10.30.2.77:59664
2020-09-28 11:42:38|Error|one client excetion 远程主机强迫关闭了一个现有的连接。,    at System.Net.Sockets.Socket.Receive(Byte[] buffer, Int32 offset, Int32 size, SocketFlags socketFlags)
   at System.Net.Sockets.Socket.Receive(Byte[] buffer, SocketFlags socketFlags)
   at YCIOT.ModbusPoll.RtuOverTcp.Bridge.TcpBridge.IsClientConnected(TcpClient client)
   at YCIOT.ModbusPoll.RtuOverTcp.Bridge.TcpBridge.OneDataReceiver(OneMetadata md)
2020-09-28 11:42:38|Info|Get_XAGY_WTPM_TrunkPressure:定3800配水间B:100708:SLS-40:1
2020-09-28 11:42:38|Info|One客户端已连接,IP:10.30.2.77:59667
2020-09-28 11:42:38|Info|[1->M]----[408-39.144.5.151:24947]-01 04 00 0A 00 01 11 C8 ----
2020-09-28 11:42:39|Info|收到连接[4][4][402]心跳包
2020-09-28 11:42:40|Info|[M][39.144.5.151:24947]:01 04 02 05 15 7B AF
2020-09-28 11:42:40|Info|[M->1][39.144.5.151:24947]:01 04 02 05 15 7B AF
2020-09-28 11:42:40|Warn|[10.30.2.77:59667] client no longer connected
2020-09-28 11:42:40|Info|Get_XAGY_WII_WaterInjectingInstrument:定4415A-1井:1009006:SLS-40:1
2020-09-28 11:42:40|Info|One客户端已连接,IP:10.30.2.77:59671
2020-09-28 11:42:40|Info|[1->M]----[402-39.144.5.169:33189]-01 03 00 4E 00 0A A5 DA ----
2020-09-28 11:42:41|Info|[M][39.144.5.169:33189]:01 03 14 00 04 00 21 00 36 00 0B D4 0C 00 00 00 00 00 00 00 00 00 00 BA B1
2020-09-28 11:42:41|Info|[M->1][39.144.5.169:33189]:01 03 14 00 04 00 21 00 36 00 0B D4 0C 00 00 00 00 00 00 00 00 00 00 BA B1
2020-09-28 11:42:41|Warn|[10.30.2.77:59671] client no longer connected
2020-09-28 11:42:41|Info|Get_XAGY_WII_WaterInjectingInstrument:定44150-1井:1009007:SLS-40:1
2020-09-28 11:42:41|Info|One客户端已连接,IP:10.30.2.77:59672
2020-09-28 11:42:41|Info|[1->M]----[402-39.144.5.169:33189]-01 03 00 58 00 0A 44 1E ----
2020-09-28 11:42:42|Info|[M][39.144.5.169:33189]:01 03 14 00 04 00 21 00 1C 00 0E A3 F1 00 00 00 00 06 2C 00 00 00 00 01 10
2020-09-28 11:42:42|Info|[M->1][39.144.5.169:33189]:01 03 14 00 04 00 21 00 1C 00 0E A3 F1 00 00 00 00 06 2C 00 00 00 00 01 10
2020-09-28 11:42:42|Warn|[10.30.2.77:59672] client no longer connected
2020-09-28 11:42:42|Info|Get_XAGY_WII_WaterInjectingInstrument:定44150-8井:1009008:SLS-40:1
2020-09-28 11:42:42|Info|One客户端已连接,IP:10.30.2.77:59673
2020-09-28 11:42:42|Info|[1->M]----[402-39.144.5.169:33189]-01 03 00 62 00 0A 64 13 ----
2020-09-28 11:42:43|Info|[M][39.144.5.169:33189]:01 03 14 00 04 00 21 00 00 00 0E C1 5A 00 00 00 00 06 40 00 00 00 00 D3 71
2020-09-28 11:42:43|Info|[M->1][39.144.5.169:33189]:01 03 14 00 04 00 21 00 00 00 0E C1 5A 00 00 00 00 06 40 00 00 00 00 D3 71
2020-09-28 11:42:43|Warn|[10.30.2.77:59673] client no longer connected
2020-09-28 11:42:43|Info|Get_XAGY_WII_WaterInjectingInstrument:定44150-7井:1009009:SLS-40:1
2020-09-28 11:42:43|Info|One客户端已连接,IP:10.30.2.77:59676
2020-09-28 11:42:43|Info|[1->M]----[402-39.144.5.169:33189]-01 03 00 6C 00 0A 05 D0 ----
2020-09-28 11:42:45|Info|[M][39.144.5.169:33189]:01 03 14 00 04 00 21 00 20 00 09 CB E6 00 00 00 00 04 CE 00 00 00 00 E0 59
2020-09-28 11:42:45|Info|[M->1][39.144.5.169:33189]:01 03 14 00 04 00 21 00 20 00 09 CB E6 00 00 00 00 04 CE 00 00 00 00 E0 59
2020-09-28 11:42:45|Warn|[10.30.2.77:59676] client no longer connected
2020-09-28 11:42:45|Info|Get_XAGY_WII_WaterInjectingInstrument:定3857-4井:1009010:SLS-40:1
2020-09-28 11:42:45|Info|One客户端已连接,IP:10.30.2.77:59678
2020-09-28 11:42:45|Info|[1->M]----[402-39.144.5.169:33189]-01 03 00 76 00 0A 24 17 ----
2020-09-28 11:42:46|Info|[M][39.144.5.169:33189]:01 03 14 00 04 00 15 00 15 00 05 CE C8 00 00 00 00 02 C6 00 00 00 00 20 CF
2020-09-28 11:42:46|Info|[M->1][39.144.5.169:33189]:01 03 14 00 04 00 15 00 15 00 05 CE C8 00 00 00 00 02 C6 00 00 00 00 20 CF
2020-09-28 11:42:46|Warn|[10.30.2.77:59678] client no longer connected
2020-09-28 11:42:46|Info|Get_XAGY_WII_WaterInjectingInstrument:定3861-8井:1009011:SLS-40:1
2020-09-28 11:42:46|Info|One客户端已连接,IP:10.30.2.77:59680
2020-09-28 11:42:46|Info|[1->M]----[402-39.144.5.169:33189]-01 03 00 80 00 0A C4 25 ----
2020-09-28 11:42:47|Info|[M][39.144.5.169:33189]:01 03 14 00 04 00 29 00 4F 00 0B F3 20 00 00 00 00 06 40 00 00 00 00 65 1C
2020-09-28 11:42:47|Info|[M->1][39.144.5.169:33189]:01 03 14 00 04 00 29 00 4F 00 0B F3 20 00 00 00 00 06 40 00 00 00 00 65 1C
2020-09-28 11:42:47|Warn|[10.30.2.77:59680] client no longer connected
2020-09-28 11:42:47|Info|Get_XAGY_WII_WaterInjectingInstrument:定44109井:1009012:SLS-40:1
2020-09-28 11:42:47|Info|One客户端已连接,IP:10.30.2.77:59683
2020-09-28 11:42:47|Info|[1->M]----[402-39.144.5.169:33189]-01 03 00 8A 00 0A E4 27 ----
2020-09-28 11:42:48|Info|[M][39.144.5.169:33189]:01 03 14 00 04 00 27 00 21 00 09 BE 15 00 00 00 00 00 00 00 00 00 00 EB 98
2020-09-28 11:42:48|Info|[M->1][39.144.5.169:33189]:01 03 14 00 04 00 27 00 21 00 09 BE 15 00 00 00 00 00 00 00 00 00 00 EB 98
2020-09-28 11:42:48|Warn|[10.30.2.77:59683] client no longer connected
2020-09-28 11:42:48|Info|Get_XAGY_WII_WaterInjectingInstrument:定3867-5井:1009013:SLS-40:1
2020-09-28 11:42:48|Info|One客户端已连接,IP:10.30.2.77:59684
2020-09-28 11:42:48|Info|[1->M]----[402-39.144.5.169:33189]-01 03 00 94 00 0A 84 21 ----
2020-09-28 11:42:50|Info|[M][39.144.5.169:33189]:01 03 14 00 20 00 00 00 00 00 00 00 00 00 00 00 00 00 00 00 00 00 00 28 A0
2020-09-28 11:42:50|Info|[M->1][39.144.5.169:33189]:01 03 14 00 20 00 00 00 00 00 00 00 00 00 00 00 00 00 00 00 00 00 00 28 A0
2020-09-28 11:42:50|Warn|[10.30.2.77:59684] client no longer connected
2020-09-28 11:42:50|Info|Get_XAGY_WII_WaterInjectingInstrument:定44150-3井:1009014:SLS-40:1
2020-09-28 11:42:50|Info|One客户端已连接,IP:10.30.2.77:59687
2020-09-28 11:42:50|Info|[1->M]----[402-39.144.5.169:33189]-01 03 00 9E 00 0A A4 23 ----
2020-09-28 11:42:52|Info|[M][39.144.5.169:33189]:01 03 14 00 04 00 22 00 21 00 07 5D 6C 00 00 00 00 00 00 00 00 00 00 EC E0
2020-09-28 11:42:52|Info|[M->1][39.144.5.169:33189]:01 03 14 00 04 00 22 00 21 00 07 5D 6C 00 00 00 00 00 00 00 00 00 00 EC E0
2020-09-28 11:42:52|Warn|[10.30.2.77:59687] client no longer connected
2020-09-28 11:42:52|Info|Get_XAGY_WII_WaterInjectingInstrument:备用井:1009015:SLS-40:1
2020-09-28 11:42:52|Info|One客户端已连接,IP:10.30.2.77:59688
2020-09-28 11:42:52|Info|[1->M]----[402-39.144.5.169:33189]-01 03 00 A8 00 0A 44 2D ----
2020-09-28 11:42:53|Info|[M][39.144.5.169:33189]:01 03 14 00 04 00 00 00 00 00 00 0A 41 00 00 00 00 00 00 00 00 00 00 1B 72
2020-09-28 11:42:53|Info|[M->1][39.144.5.169:33189]:01 03 14 00 04 00 00 00 00 00 00 0A 41 00 00 00 00 00 00 00 00 00 00 1B 72
2020-09-28 11:42:53|Warn|[10.30.2.77:59688] client no longer connected
2020-09-28 11:42:53|Info|Get_XAGY_WII_WaterInjectingInstrument:定44121-2井:1009016:SLS-40:1
2020-09-28 11:42:53|Info|One客户端已连接,IP:10.30.2.77:59691
2020-09-28 11:42:56|Info|收到连接[4][4][405]心跳包
2020-09-28 11:42:56|Error|one client excetion 远程主机强迫关闭了一个现有的连接。,    at System.Net.Sockets.Socket.Receive(Byte[] buffer, Int32 offset, Int32 size, SocketFlags socketFlags)
   at System.Net.Sockets.Socket.Receive(Byte[] buffer, SocketFlags socketFlags)
   at YCIOT.ModbusPoll.RtuOverTcp.Bridge.TcpBridge.IsClientConnected(TcpClient client)
   at YCIOT.ModbusPoll.RtuOverTcp.Bridge.TcpBridge.OneDataReceiver(OneMetadata md)
2020-09-28 11:42:56|Info|Get_XAGY_WII_WaterInjectingInstrument:定44121-3井:1009017:SLS-40:1
2020-09-28 11:42:56|Info|One客户端已连接,IP:10.30.2.77:59695
2020-09-28 11:42:59|Error|one client excetion 远程主机强迫关闭了一个现有的连接。,    at System.Net.Sockets.Socket.Receive(Byte[] buffer, Int32 offset, Int32 size, SocketFlags socketFlags)
   at System.Net.Sockets.Socket.Receive(Byte[] buffer, SocketFlags socketFlags)
   at YCIOT.ModbusPoll.RtuOverTcp.Bridge.TcpBridge.IsClientConnected(TcpClient client)
   at YCIOT.ModbusPoll.RtuOverTcp.Bridge.TcpBridge.OneDataReceiver(OneMetadata md)
2020-09-28 11:42:59|Info|Get_XAGY_WII_WaterInjectingInstrument:定44121-1井:1009018:SLS-40:1
2020-09-28 11:42:59|Info|One客户端已连接,IP:10.30.2.77:59699
2020-09-28 11:43:02|Error|one client excetion 远程主机强迫关闭了一个现有的连接。,    at System.Net.Sockets.Socket.Receive(Byte[] buffer, Int32 offset, Int32 size, SocketFlags socketFlags)
   at System.Net.Sockets.Socket.Receive(Byte[] buffer, SocketFlags socketFlags)
   at YCIOT.ModbusPoll.RtuOverTcp.Bridge.TcpBridge.IsClientConnected(TcpClient client)
   at YCIOT.ModbusPoll.RtuOverTcp.Bridge.TcpBridge.OneDataReceiver(OneMetadata md)
2020-09-28 11:43:02|Info|Get_XAGY_WII_WaterInjectingInstrument:定44127-2井:1009019:SLS-40:1
2020-09-28 11:43:02|Info|One客户端已连接,IP:10.30.2.77:59704
2020-09-28 11:43:05|Error|one client excetion 远程主机强迫关闭了一个现有的连接。,    at System.Net.Sockets.Socket.Receive(Byte[] buffer, Int32 offset, Int32 size, SocketFlags socketFlags)
   at System.Net.Sockets.Socket.Receive(Byte[] buffer, SocketFlags socketFlags)
   at YCIOT.ModbusPoll.RtuOverTcp.Bridge.TcpBridge.IsClientConnected(TcpClient client)
   at YCIOT.ModbusPoll.RtuOverTcp.Bridge.TcpBridge.OneDataReceiver(OneMetadata md)
2020-09-28 11:43:05|Info|Get_XAGY_WII_WaterInjectingInstrument:备用井:1009020:SLS-40:1
2020-09-28 11:43:05|Info|One客户端已连接,IP:10.30.2.77:59708
2020-09-28 11:43:06|Info|收到连接[4][4][407]心跳包
2020-09-28 11:43:08|Error|one client excetion 远程主机强迫关闭了一个现有的连接。,    at System.Net.Sockets.Socket.Receive(Byte[] buffer, Int32 offset, Int32 size, SocketFlags socketFlags)
   at System.Net.Sockets.Socket.Receive(Byte[] buffer, SocketFlags socketFlags)
   at YCIOT.ModbusPoll.RtuOverTcp.Bridge.TcpBridge.IsClientConnected(TcpClient client)
   at YCIOT.ModbusPoll.RtuOverTcp.Bridge.TcpBridge.OneDataReceiver(OneMetadata md)
2020-09-28 11:43:08|Info|Get_XAGY_WII_WaterInjectingInstrument:定44127-3井:1009021:SLS-40:1
2020-09-28 11:43:08|Info|One客户端已连接,IP:10.30.2.77:59713
2020-09-28 11:43:10|Info|收到连接[4][4][408]心跳包
2020-09-28 11:43:11|Error|one client excetion 远程主机强迫关闭了一个现有的连接。,    at System.Net.Sockets.Socket.Receive(Byte[] buffer, Int32 offset, Int32 size, SocketFlags socketFlags)
   at System.Net.Sockets.Socket.Receive(Byte[] buffer, SocketFlags socketFlags)
   at YCIOT.ModbusPoll.RtuOverTcp.Bridge.TcpBridge.IsClientConnected(TcpClient client)
   at YCIOT.ModbusPoll.RtuOverTcp.Bridge.TcpBridge.OneDataReceiver(OneMetadata md)
2020-09-28 11:43:11|Info|Get_XAGY_WII_WaterInjectingInstrument:备用井:1009022:SLS-40:1
2020-09-28 11:43:11|Info|One客户端已连接,IP:10.30.2.77:59716
2020-09-28 11:43:14|Error|one client excetion 远程主机强迫关闭了一个现有的连接。,    at System.Net.Sockets.Socket.Receive(Byte[] buffer, Int32 offset, Int32 size, SocketFlags socketFlags)
   at System.Net.Sockets.Socket.Receive(Byte[] buffer, SocketFlags socketFlags)
   at YCIOT.ModbusPoll.RtuOverTcp.Bridge.TcpBridge.IsClientConnected(TcpClient client)
   at YCIOT.ModbusPoll.RtuOverTcp.Bridge.TcpBridge.OneDataReceiver(OneMetadata md)
2020-09-28 11:43:14|Info|Get_XAGY_WII_WaterInjectingInstrument:定44125-2井:1009023:SLS-40:1
2020-09-28 11:43:14|Info|One客户端已连接,IP:10.30.2.77:59721
2020-09-28 11:43:17|Error|one client excetion 远程主机强迫关闭了一个现有的连接。,    at System.Net.Sockets.Socket.Receive(Byte[] buffer, Int32 offset, Int32 size, SocketFlags socketFlags)
   at System.Net.Sockets.Socket.Receive(Byte[] buffer, SocketFlags socketFlags)
   at YCIOT.ModbusPoll.RtuOverTcp.Bridge.TcpBridge.IsClientConnected(TcpClient client)
   at YCIOT.ModbusPoll.RtuOverTcp.Bridge.TcpBridge.OneDataReceiver(OneMetadata md)
2020-09-28 11:43:17|Info|Get_XAGY_WII_WaterInjectingInstrument:定44123-1井:1009024:SLS-40:1
2020-09-28 11:43:17|Info|One客户端已连接,IP:10.30.2.77:59725
2020-09-28 11:43:20|Error|one client excetion 远程主机强迫关闭了一个现有的连接。,    at System.Net.Sockets.Socket.Receive(Byte[] buffer, Int32 offset, Int32 size, SocketFlags socketFlags)
   at System.Net.Sockets.Socket.Receive(Byte[] buffer, SocketFlags socketFlags)
   at YCIOT.ModbusPoll.RtuOverTcp.Bridge.TcpBridge.IsClientConnected(TcpClient client)
   at YCIOT.ModbusPoll.RtuOverTcp.Bridge.TcpBridge.OneDataReceiver(OneMetadata md)
2020-09-28 11:43:20|Info|Get_XAGY_WII_WaterInjectingInstrument:备用井:1009025:SLS-40:1
2020-09-28 11:43:20|Info|One客户端已连接,IP:10.30.2.77:59728
2020-09-28 11:43:23|Info|收到连接[4][4][402]心跳包
2020-09-28 11:43:24|Error|one client excetion 远程主机强迫关闭了一个现有的连接。,    at System.Net.Sockets.Socket.Receive(Byte[] buffer, Int32 offset, Int32 size, SocketFlags socketFlags)
   at System.Net.Sockets.Socket.Receive(Byte[] buffer, SocketFlags socketFlags)
   at YCIOT.ModbusPoll.RtuOverTcp.Bridge.TcpBridge.IsClientConnected(TcpClient client)
   at YCIOT.ModbusPoll.RtuOverTcp.Bridge.TcpBridge.OneDataReceiver(OneMetadata md)
2020-09-28 11:43:24|Info|Get_XAGY_WII_WaterInjectingInstrument:定44123-2井:1009026:SLS-40:1
2020-09-28 11:43:24|Info|One客户端已连接,IP:10.30.2.77:59732
2020-09-28 11:43:26|Info|收到连接[4][4][405]心跳包
2020-09-28 11:43:27|Error|one client excetion 远程主机强迫关闭了一个现有的连接。,    at System.Net.Sockets.Socket.Receive(Byte[] buffer, Int32 offset, Int32 size, SocketFlags socketFlags)
   at System.Net.Sockets.Socket.Receive(Byte[] buffer, SocketFlags socketFlags)
   at YCIOT.ModbusPoll.RtuOverTcp.Bridge.TcpBridge.IsClientConnected(TcpClient client)
   at YCIOT.ModbusPoll.RtuOverTcp.Bridge.TcpBridge.OneDataReceiver(OneMetadata md)
2020-09-28 11:43:27|Info|Get_XAGY_WII_WaterInjectingInstrument:备用井:1009027:SLS-40:1
2020-09-28 11:43:27|Info|One客户端已连接,IP:10.30.2.77:59736
2020-09-28 11:43:30|Error|one client excetion 远程主机强迫关闭了一个现有的连接。,    at System.Net.Sockets.Socket.Receive(Byte[] buffer, Int32 offset, Int32 size, SocketFlags socketFlags)
   at System.Net.Sockets.Socket.Receive(Byte[] buffer, SocketFlags socketFlags)
   at YCIOT.ModbusPoll.RtuOverTcp.Bridge.TcpBridge.IsClientConnected(TcpClient client)
   at YCIOT.ModbusPoll.RtuOverTcp.Bridge.TcpBridge.OneDataReceiver(OneMetadata md)
2020-09-28 11:43:30|Info|Get_XAGY_WII_WaterInjectingInstrument:定44127-1井:1009028:SLS-40:1
2020-09-28 11:43:30|Info|One客户端已连接,IP:10.30.2.77:59740
2020-09-28 11:43:33|Error|one client excetion 远程主机强迫关闭了一个现有的连接。,    at System.Net.Sockets.Socket.Receive(Byte[] buffer, Int32 offset, Int32 size, SocketFlags socketFlags)
   at System.Net.Sockets.Socket.Receive(Byte[] buffer, SocketFlags socketFlags)
   at YCIOT.ModbusPoll.RtuOverTcp.Bridge.TcpBridge.IsClientConnected(TcpClient client)
   at YCIOT.ModbusPoll.RtuOverTcp.Bridge.TcpBridge.OneDataReceiver(OneMetadata md)
2020-09-28 11:43:33|Info|Get_XAGY_WII_WaterInjectingInstrument:定44088-5井:1009029:SLS-40:1
2020-09-28 11:43:33|Info|One客户端已连接,IP:10.30.2.77:59744
2020-09-28 11:43:33|Info|[1->M]----[405-117.132.198.60:49014]-01 03 00 4E 00 0A A5 DA ----
2020-09-28 11:43:34|Info|[M][117.132.198.60:49014]:01 03 14 00 04 00 2E 00 2E 00 03 05 86 00 00 00 00 06 18 00 00 00 00 1F 03
2020-09-28 11:43:34|Info|[M->1][117.132.198.60:49014]:01 03 14 00 04 00 2E 00 2E 00 03 05 86 00 00 00 00 06 18 00 00 00 00 1F 03
2020-09-28 11:43:34|Warn|[10.30.2.77:59744] client no longer connected
2020-09-28 11:43:34|Info|Get_XAGY_WII_WaterInjectingInstrument:定44088-3井:1009030:SLS-40:1
2020-09-28 11:43:34|Info|One客户端已连接,IP:10.30.2.77:59746
2020-09-28 11:43:34|Info|[1->M]----[405-117.132.198.60:49014]-01 03 00 58 00 0A 44 1E ----
2020-09-28 11:43:35|Info|[M][117.132.198.60:49014]:01 03 14 00 04 00 1E 00 00 00 00 8E 52 00 00 00 00 06 EA 00 00 00 00 C3 50
2020-09-28 11:43:35|Info|[M->1][117.132.198.60:49014]:01 03 14 00 04 00 1E 00 00 00 00 8E 52 00 00 00 00 06 EA 00 00 00 00 C3 50
2020-09-28 11:43:35|Warn|[10.30.2.77:59746] client no longer connected
2020-09-28 11:43:35|Info|Get_XAGY_WII_WaterInjectingInstrument:备用井:1009031:SLS-40:1
2020-09-28 11:43:35|Info|One客户端已连接,IP:10.30.2.77:59749
2020-09-28 11:43:35|Info|[1->M]----[405-117.132.198.60:49014]-01 03 00 62 00 0A 64 13 ----
2020-09-28 11:43:36|Info|收到连接[4][4][407]心跳包
2020-09-28 11:43:36|Info|[M][117.132.198.60:49014]:01 03 14 00 04 00 1E 00 00 00 00 00 15 00 00 00 00 00 00 00 00 00 00 7E FD
2020-09-28 11:43:36|Info|[M->1][117.132.198.60:49014]:01 03 14 00 04 00 1E 00 00 00 00 00 15 00 00 00 00 00 00 00 00 00 00 7E FD
2020-09-28 11:43:36|Warn|[10.30.2.77:59749] client no longer connected
2020-09-28 11:43:36|Info|Get_XAGY_WII_WaterInjectingInstrument:定44088-1井:1009032:SLS-40:1
2020-09-28 11:43:36|Info|One客户端已连接,IP:10.30.2.77:59750
2020-09-28 11:43:36|Info|[1->M]----[405-117.132.198.60:49014]-01 03 00 6C 00 0A 05 D0 ----
2020-09-28 11:43:37|Info|[M][117.132.198.60:49014]:01 03 14 00 04 00 19 00 00 00 01 1A 55 00 00 00 00 00 00 00 00 00 00 42 6B
2020-09-28 11:43:37|Info|[M->1][117.132.198.60:49014]:01 03 14 00 04 00 19 00 00 00 01 1A 55 00 00 00 00 00 00 00 00 00 00 42 6B
2020-09-28 11:43:38|Warn|[10.30.2.77:59750] client no longer connected
2020-09-28 11:43:38|Info|Get_XAGY_WII_WaterInjectingInstrument:定44133-1井:1009033:SLS-40:1
2020-09-28 11:43:38|Info|One客户端已连接,IP:10.30.2.77:59752
2020-09-28 11:43:38|Info|[1->M]----[405-117.132.198.60:49014]-01 03 00 76 00 0A 24 17 ----
2020-09-28 11:43:39|Info|[M][117.132.198.60:49014]:01 03 14 00 04 00 0D 00 0B 00 00 B3 09 00 00 00 00 06 F4 00 00 00 00 54 D6
2020-09-28 11:43:39|Info|[M->1][117.132.198.60:49014]:01 03 14 00 04 00 0D 00 0B 00 00 B3 09 00 00 00 00 06 F4 00 00 00 00 54 D6
2020-09-28 11:43:39|Warn|[10.30.2.77:59752] client no longer connected
2020-09-28 11:43:39|Info|Get_XAGY_WII_WaterInjectingInstrument:定3864-4井:1009034:SLS-40:1
2020-09-28 11:43:39|Info|One客户端已连接,IP:10.30.2.77:59755
2020-09-28 11:43:39|Info|[1->M]----[405-117.132.198.60:49014]-01 03 00 80 00 0A C4 25 ----
2020-09-28 11:43:40|Info|[M][117.132.198.60:49014]:01 03 14 00 04 00 15 00 00 00 01 34 D2 00 00 00 00 00 50 00 00 00 00 9C BA
2020-09-28 11:43:40|Info|[M->1][117.132.198.60:49014]:01 03 14 00 04 00 15 00 00 00 01 34 D2 00 00 00 00 00 50 00 00 00 00 9C BA
2020-09-28 11:43:40|Warn|[10.30.2.77:59755] client no longer connected
2020-09-28 11:43:40|Info|Get_XAGY_WII_WaterInjectingInstrument:定44131-2井:1009035:SLS-40:1
2020-09-28 11:43:40|Info|One客户端已连接,IP:10.30.2.77:59758
2020-09-28 11:43:40|Info|[1->M]----[405-117.132.198.60:49014]-01 03 00 8A 00 0A E4 27 ----
2020-09-28 11:43:41|Info|收到连接[4][4][408]心跳包
2020-09-28 11:43:41|Info|[M][117.132.198.60:49014]:01 03 14 00 04 00 0D 00 05 00 00 84 CC 00 00 00 00 06 F4 00 00 00 00 82 96
2020-09-28 11:43:41|Info|[M->1][117.132.198.60:49014]:01 03 14 00 04 00 0D 00 05 00 00 84 CC 00 00 00 00 06 F4 00 00 00 00 82 96
2020-09-28 11:43:41|Warn|[10.30.2.77:59758] client no longer connected
2020-09-28 11:43:41|Info|Get_XAGY_WII_WaterInjectingInstrument:定44131-1井:1009036:SLS-40:1
2020-09-28 11:43:41|Info|One客户端已连接,IP:10.30.2.77:59761
2020-09-28 11:43:41|Info|[1->M]----[405-117.132.198.60:49014]-01 03 00 94 00 0A 84 21 ----
2020-09-28 11:43:42|Info|[M][117.132.198.60:49014]:01 03 14 00 04 00 0D 00 0C 00 00 E8 E1 00 00 00 00 06 EA 00 00 00 00 E3 6E
2020-09-28 11:43:42|Info|[M->1][117.132.198.60:49014]:01 03 14 00 04 00 0D 00 0C 00 00 E8 E1 00 00 00 00 06 EA 00 00 00 00 E3 6E
2020-09-28 11:43:42|Warn|[10.30.2.77:59761] client no longer connected
2020-09-28 11:43:42|Info|Get_XAGY_WII_WaterInjectingInstrument:定44137-4井:1009037:SLS-40:1
2020-09-28 11:43:42|Info|One客户端已连接,IP:10.30.2.77:59763
2020-09-28 11:43:45|Error|one client excetion 远程主机强迫关闭了一个现有的连接。,    at System.Net.Sockets.Socket.Receive(Byte[] buffer, Int32 offset, Int32 size, SocketFlags socketFlags)
   at System.Net.Sockets.Socket.Receive(Byte[] buffer, SocketFlags socketFlags)
   at YCIOT.ModbusPoll.RtuOverTcp.Bridge.TcpBridge.IsClientConnected(TcpClient client)
   at YCIOT.ModbusPoll.RtuOverTcp.Bridge.TcpBridge.OneDataReceiver(OneMetadata md)
2020-09-28 11:43:45|Info|Get_XAGY_WII_WaterInjectingInstrument:定44137-2井:1009038:SLS-40:1
2020-09-28 11:43:45|Info|One客户端已连接,IP:10.30.2.77:59766
2020-09-28 11:43:48|Error|one client excetion 远程主机强迫关闭了一个现有的连接。,    at System.Net.Sockets.Socket.Receive(Byte[] buffer, Int32 offset, Int32 size, SocketFlags socketFlags)
   at System.Net.Sockets.Socket.Receive(Byte[] buffer, SocketFlags socketFlags)
   at YCIOT.ModbusPoll.RtuOverTcp.Bridge.TcpBridge.IsClientConnected(TcpClient client)
   at YCIOT.ModbusPoll.RtuOverTcp.Bridge.TcpBridge.OneDataReceiver(OneMetadata md)
2020-09-28 11:43:48|Info|Get_XAGY_WII_WaterInjectingInstrument:备用井:1009039:SLS-40:1
2020-09-28 11:43:48|Info|One客户端已连接,IP:10.30.2.77:59769
2020-09-28 11:43:52|Error|one client excetion 远程主机强迫关闭了一个现有的连接。,    at System.Net.Sockets.Socket.Receive(Byte[] buffer, Int32 offset, Int32 size, SocketFlags socketFlags)
   at System.Net.Sockets.Socket.Receive(Byte[] buffer, SocketFlags socketFlags)
   at YCIOT.ModbusPoll.RtuOverTcp.Bridge.TcpBridge.IsClientConnected(TcpClient client)
   at YCIOT.ModbusPoll.RtuOverTcp.Bridge.TcpBridge.OneDataReceiver(OneMetadata md)
2020-09-28 11:43:52|Info|Get_XAGY_WII_WaterInjectingInstrument:备用井:1009040:SLS-40:1
2020-09-28 11:43:52|Info|One客户端已连接,IP:10.30.2.77:59772
2020-09-28 11:43:53|Info|收到连接[4][4][402]心跳包
2020-09-28 11:43:55|Error|one client excetion 远程主机强迫关闭了一个现有的连接。,    at System.Net.Sockets.Socket.Receive(Byte[] buffer, Int32 offset, Int32 size, SocketFlags socketFlags)
   at System.Net.Sockets.Socket.Receive(Byte[] buffer, SocketFlags socketFlags)
   at YCIOT.ModbusPoll.RtuOverTcp.Bridge.TcpBridge.IsClientConnected(TcpClient client)
   at YCIOT.ModbusPoll.RtuOverTcp.Bridge.TcpBridge.OneDataReceiver(OneMetadata md)
2020-09-28 11:43:55|Info|Get_XAGY_WII_WaterInjectingInstrument:定3800-1井:1009041:SLS-40:1
2020-09-28 11:43:55|Info|One客户端已连接,IP:10.30.2.77:59775
2020-09-28 11:43:55|Info|[1->M]----[407-221.178.124.151:32426]-01 03 00 4E 00 0A A5 DA ----
2020-09-28 11:43:57|Info|[M][221.178.124.151:32426]:01 03 14 00 04 00 15 00 0D 00 01 30 B7 00 00 00 00 04 F6 00 00 00 00 46 20
2020-09-28 11:43:57|Info|[M->1][221.178.124.151:32426]:01 03 14 00 04 00 15 00 0D 00 01 30 B7 00 00 00 00 04 F6 00 00 00 00 46 20
2020-09-28 11:43:57|Warn|[10.30.2.77:59775] client no longer connected
2020-09-28 11:43:57|Info|Get_XAGY_WII_WaterInjectingInstrument:定3800-2井:1009042:SLS-40:1
2020-09-28 11:43:57|Info|One客户端已连接,IP:10.30.2.77:59778
2020-09-28 11:43:57|Info|[1->M]----[407-221.178.124.151:32426]-01 03 00 58 00 0A 44 1E ----
2020-09-28 11:43:58|Info|[M][221.178.124.151:32426]:01 03 14 00 04 00 14 00 17 00 01 80 61 00 00 00 00 04 E2 00 00 00 00 49 CD
2020-09-28 11:43:58|Info|[M->1][221.178.124.151:32426]:01 03 14 00 04 00 14 00 17 00 01 80 61 00 00 00 00 04 E2 00 00 00 00 49 CD
2020-09-28 11:43:58|Warn|[10.30.2.77:59778] client no longer connected
2020-09-28 11:43:58|Info|Get_XAGY_WII_WaterInjectingInstrument:定3844-3井:1009043:SLS-40:1
2020-09-28 11:43:58|Info|One客户端已连接,IP:10.30.2.77:59779
2020-09-28 11:43:58|Info|[1->M]----[408-39.144.5.151:24947]-01 03 00 4E 00 0A A5 DA ----
2020-09-28 11:44:00|Info|[M][39.144.5.151:24947]:01 03 14 00 04 00 16 00 15 00 00 D8 8E 00 00 00 00 04 EC 00 00 00 00 47 24
2020-09-28 11:44:00|Info|[M->1][39.144.5.151:24947]:01 03 14 00 04 00 16 00 15 00 00 D8 8E 00 00 00 00 04 EC 00 00 00 00 47 24
2020-09-28 11:44:00|Warn|[10.30.2.77:59779] client no longer connected
2020-09-28 11:44:00|Info|Get_XAGY_WII_WaterInjectingInstrument:定3851-1井:1009044:SLS-40:1
2020-09-28 11:44:00|Info|One客户端已连接,IP:10.30.2.77:59784
2020-09-28 11:44:00|Info|[1->M]----[408-39.144.5.151:24947]-01 03 00 58 00 0A 44 1E ----
2020-09-28 11:44:01|Info|[M][39.144.5.151:24947]:01 03 14 00 04 00 2A 00 29 00 02 AD 5F 00 00 00 00 00 00 00 00 00 00 DC 64
2020-09-28 11:44:01|Info|[M->1][39.144.5.151:24947]:01 03 14 00 04 00 2A 00 29 00 02 AD 5F 00 00 00 00 00 00 00 00 00 00 DC 64
2020-09-28 11:44:01|Warn|[10.30.2.77:59784] client no longer connected
2020-09-28 11:44:01|Info|Get_XAGY_WII_WaterInjectingInstrument:定3844-7井:1009045:SLS-40:1
2020-09-28 11:44:01|Info|One客户端已连接,IP:10.30.2.77:59794
2020-09-28 11:44:01|Info|[1->M]----[408-39.144.5.151:24947]-01 03 00 62 00 0A 64 13 ----
2020-09-28 11:44:02|Info|[M][39.144.5.151:24947]:01 03 14 00 04 00 2A 00 29 00 01 2E 15 00 00 00 00 05 00 00 00 00 00 AB 91
2020-09-28 11:44:02|Info|[M->1][39.144.5.151:24947]:01 03 14 00 04 00 2A 00 29 00 01 2E 15 00 00 00 00 05 00 00 00 00 00 AB 91
2020-09-28 11:44:02|Warn|[10.30.2.77:59794] client no longer connected
2020-09-28 11:44:02|Info|Get_XAGY_WII_WaterInjectingInstrument:定3852-1井:1009046:SLS-40:1
2020-09-28 11:44:02|Info|One客户端已连接,IP:10.30.2.77:59807
2020-09-28 11:44:02|Info|[1->M]----[408-39.144.5.151:24947]-01 03 00 6C 00 0A 05 D0 ----
2020-09-28 11:44:03|Info|[M][39.144.5.151:24947]:01 03 14 00 04 00 19 00 18 00 01 65 2E 00 00 00 00 04 C4 00 00 00 00 70 BA
2020-09-28 11:44:03|Info|[M->1][39.144.5.151:24947]:01 03 14 00 04 00 19 00 18 00 01 65 2E 00 00 00 00 04 C4 00 00 00 00 70 BA
2020-09-28 11:44:03|Warn|[10.30.2.77:59807] client no longer connected
